R350_PROBE read reg=0x0f02 value=0x00004e48 count=1
R350_PROBE read reg=0x0f0a value=0x00000300 count=1
R350_PROBE write reg=0x4018 value=0x00000017 count=1
R350_PROBE write reg=0x429c value=0x00000400 count=1
R350_PROBE read reg=0x0e40 value=0x00000040 count=1
R350_PROBE write reg=0x4018 value=0x00000017 count=2
ppc-mac-gpu stalled: no drawing for 4 s.
  fences: reg0=0 reg1=0 reg2=0 reg3=0 (copy at 0x00000000, enabled 0x0)
  ring: rptr=0 wptr=0, copy kept at 0x00000000; commands by hand: 0 dwords, through the ring: 0
  buffers fetched from memory: 0 carried out (0 dwords), 0 not found
  interrupts: asked for 0x00000000, pending 0x00000000, 0 raised
  the fence copy lands in the card's own memory -- the guest cannot see it there
  the last 256 registers the guest touched:
  the last commands it pushed:
  the last 32 registers the guest touched:
    read MM_INDEX(0x000)
    read MM_INDEX(0x000)
    read MM_INDEX(0x000)
    read MM_INDEX(0x000)
    read MM_INDEX(0x000)
    read MM_INDEX(0x000)
    read MM_INDEX(0x000)
    read MM_INDEX(0x000)
    read MM_INDEX(0x000)
    read MM_INDEX(0x000)
    read MM_INDEX(0x000)
    read MM_INDEX(0x000)
    read MM_INDEX(0x000)
    read MM_INDEX(0x000)
    read MM_INDEX(0x000)
    read MM_INDEX(0x000)
    read MM_INDEX(0x000)
    read MM_INDEX(0x000)
    read MM_INDEX(0x000)
    read MM_INDEX(0x000)
    read MM_INDEX(0x000)
    read MM_INDEX(0x000)
    read MM_INDEX(0x000)
    read MM_INDEX(0x000)
    read MM_INDEX(0x000)
    read MM_INDEX(0x000)
    read MM_INDEX(0x000)
    read MM_INDEX(0x000)
    read PCI_MIRROR(0xf02)
    read PCI_MIRROR(0xf0a)
    read RBBM_STATUS(0xe40)
    read RBBM_STATUS(0xe40)
R350_PROBE read reg=0x0e40 value=0x00000040 count=2
R350_PROBE read reg=0x1720 value=0x00000000 count=1
R350_PROBE read reg=0x0e40 value=0x00000040 count=3
R350_PROBE read reg=0x1720 value=0x00000000 count=2
R350_PROBE read reg=0x0e40 value=0x00000040 count=4
R350_PROBE read reg=0x1720 value=0x00000000 count=3
R350_PROBE read reg=0x0e40 value=0x00000040 count=5
R350_PROBE read reg=0x1720 value=0x00000000 count=4
R350_PROBE read reg=0x0e40 value=0x00000040 count=6
R350_PROBE read reg=0x1720 value=0x00000000 count=5
R350_PROBE read reg=0x0e40 value=0x00000040 count=7
R350_PROBE read reg=0x1720 value=0x00000000 count=6
R350_PROBE read reg=0x0e40 value=0x00000040 count=8
R350_PROBE read reg=0x1720 value=0x00000000 count=7
R350_PROBE read reg=0x1720 value=0x00000000 count=8
R350_PROBE read reg=0x0e40 value=0x00000040 count=16
R350_PROBE read reg=0x1720 value=0x00000000 count=16
R350_PROBE read reg=0x0e40 value=0x00000040 count=32
R350_PROBE read reg=0x1720 value=0x00000000 count=32
R350_PROBE read reg=0x0e40 value=0x00000040 count=64
R350_PROBE read reg=0x1720 value=0x00000000 count=64
R350_PROBE read reg=0x0e40 value=0x00000040 count=128
R350_PROBE read reg=0x1720 value=0x00000000 count=128
R350_PROBE read reg=0x0e40 value=0x00000040 count=256
R350_PROBE read reg=0x1720 value=0x00000000 count=256
R350_PROBE read reg=0x0e40 value=0x00000040 count=512
R350_PROBE read reg=0x1720 value=0x00000000 count=512
R350_PROBE write reg=0x4e4c value=0x00000010 count=1
R350_PROBE read reg=0x0e40 value=0x00000040 count=1024
R350_PROBE read reg=0x1720 value=0x00000000 count=1024
R350_PROBE write reg=0x0770 value=0x00000000 count=1
R350_PROBE read reg=0x0704 value=0x00000000 count=1
R350_PROBE write reg=0x0704 value=0x08000000 count=1
R350_PROBE write reg=0x0744 value=0x00000000 count=1
R350_PROBE read reg=0x0744 value=0x00000000 count=1
R350_PROBE read reg=0x0704 value=0x08000000 count=2
R350_PROBE write reg=0x0704 value=0x88000000 count=2
R350_PROBE write reg=0x071c value=0x00000000 count=1
R350_PROBE write reg=0x0714 value=0x00000000 count=1
R350_PROBE write reg=0x0704 value=0x08000000 count=3
R350_PROBE read reg=0x0e40 value=0x00000040 count=2048
R350_PROBE read reg=0x1720 value=0x00000000 count=2048
R350_PROBE read reg=0x0500 value=0x0000b0c5 count=1
R350_PROBE read reg=0x0514 value=0x00000800 count=1
R350_PROBE read reg=0x0502 value=0x00000400 count=2
R350_PROBE read reg=0x0504 value=0x00000300 count=1
R350_PROBE read reg=0x0506 value=0x00000020 count=2
R350_PROBE write reg=0x0508 value=0x00000000 count=1
R350_PROBE write reg=0x0506 value=0x00000020 count=1
R350_PROBE write reg=0x0502 value=0x00000400 count=1
R350_PROBE write reg=0x0504 value=0x00000300 count=2
R350_PROBE write reg=0x050a value=0x00000000 count=2
R350_PROBE write reg=0x050c value=0x00000400 count=1
R350_PROBE write reg=0x050e value=0x00000600 count=2
R350_PROBE write reg=0x0510 value=0x00000000 count=1
R350_PROBE write reg=0x0512 value=0x00000000 count=2
R350_PROBE write reg=0x0508 value=0x00000061 count=3
R350_PROBE write reg=0x0740 value=0x00000000 count=1
R350_PROBE write reg=0x0744 value=0x00000000 count=2
R350_PROBE write reg=0x0170 value=0x00000000 count=1
R350_PROBE write reg=0x015c value=0x00000000 count=1
R350_PROBE write reg=0x0148 value=0xffff0000 count=1
R350_PROBE read reg=0x00f8 value=0x07c00000 count=1
R350_PROBE write reg=0x023c value=0x00000000 count=1
R350_PROBE write reg=0x033c value=0x00000000 count=1
R350_PROBE write reg=0x0148 value=0x07bf0000 count=2
R350_PROBE read reg=0x00f8 value=0x07c00000 count=2
R350_PROBE write reg=0x014c value=0x17ff1000 count=1
R350_PROBE write reg=0x0ab0 value=0x03310000 count=1
R350_PROBE write reg=0x0ab4 value=0x00000000 count=1
R350_PROBE write reg=0x01dc value=0x07c00000 count=1
R350_PROBE write reg=0x01e0 value=0x0fbfffff count=1
R350_PROBE read reg=0x01d0 value=0x00000000 count=1
R350_PROBE write reg=0x01d0 value=0x00000001 count=1
R350_PROBE write reg=0x0700 value=0x10020000 count=1
R350_PROBE write reg=0x15e0 value=0x00000000 count=1
R350_PROBE write reg=0x15e4 value=0x00000000 count=1
R350_PROBE write reg=0x15e8 value=0x00000000 count=1
R350_PROBE write reg=0x15ec value=0x00000000 count=1
R350_PROBE write reg=0x15f0 value=0x00000000 count=1
R350_PROBE write reg=0x15f4 value=0x00000000 count=1
R350_PROBE write reg=0x15f8 value=0x00000000 count=1
R350_PROBE write reg=0x15fc value=0x00000000 count=1
R350_PROBE write reg=0x1fa8 value=0x00000000 count=1
R350_PROBE write reg=0x0774 value=0x07c24000 count=1
R350_PROBE write reg=0x0770 value=0x000000ff count=2
R350_PROBE read reg=0x0b00 value=0x00000000 count=1
R350_PROBE write reg=0x0b00 value=0x00000000 count=1
R350_PROBE read reg=0x0030 value=0x00000000 count=1
R350_PROBE write reg=0x0030 value=0x00000000 count=1
R350_PROBE read reg=0x1724 value=0x00000000 count=1
R350_PROBE write reg=0x1724 value=0x00000003 count=1
R350_PROBE read reg=0x1710 value=0x00000000 count=1
R350_PROBE write reg=0x1710 value=0x00020000 count=1
R350_PROBE read reg=0x0704 value=0x08000000 count=3
R350_PROBE read reg=0x0f5c value=0x1f000203 count=1
R350_PROBE write reg=0x0704 value=0x0002000a count=4
R350_PROBE write reg=0x07d4 value=0x00000000 count=1
R350_PROBE write reg=0x07dc value=0x00000000 count=1
R350_PROBE write reg=0x07e0 value=0x4200e000 count=1
R350_PROBE write reg=0x07dc value=0x00000000 count=2
R350_PROBE write reg=0x07e0 value=0x4000e000 count=2
R350_PROBE write reg=0x07dc value=0x00000008 count=3
R350_PROBE write reg=0x07e0 value=0x000000b3 count=3
R350_PROBE write reg=0x07dc value=0x00000008 count=4
R350_PROBE write reg=0x07e0 value=0x000000b7 count=4
R350_PROBE write reg=0x07dc value=0x00000000 count=5
R350_PROBE write reg=0x07e0 value=0x6c5a504f count=5
R350_PROBE write reg=0x07dc value=0x00000000 count=6
R350_PROBE write reg=0x07e0 value=0x4f4f497a count=6
R350_PROBE write reg=0x07dc value=0x00000000 count=7
R350_PROBE write reg=0x07e0 value=0x5a578288 count=7
R350_PROBE write reg=0x07dc value=0x00000000 count=8
R350_PROBE write reg=0x07e0 value=0x4f91906a count=8
R350_PROBE write reg=0x07dc value=0x00000004 count=16
R350_PROBE write reg=0x07e0 value=0x000ca000 count=16
R350_PROBE write reg=0x07dc value=0x00000004 count=32
R350_PROBE write reg=0x07e0 value=0x0000e825 count=32
R350_PROBE write reg=0x07dc value=0x00000004 count=64
R350_PROBE write reg=0x07e0 value=0x08004800 count=64
R350_PROBE write reg=0x07dc value=0x00000018 count=128
R350_PROBE write reg=0x07e0 value=0x0000007c count=128
R350_PROBE write reg=0x07dc value=0x00000000 count=256
R350_PROBE write reg=0x07e0 value=0x00000000 count=256
R350_PROBE write reg=0x0718 value=0x00000023 count=1
R350_PROBE read reg=0x0710 value=0x00000000 count=1
R350_PROBE write reg=0x0714 value=0x00000000 count=2
R350_PROBE write reg=0x070c value=0x07c00000 count=1
R350_PROBE write reg=0x0740 value=0x40000000 count=2
R350_PROBE write reg=0x0704 value=0x0002000a count=5
R350_PROBE read reg=0x00f8 value=0x07c00000 count=3
R350_PROBE read reg=0x0224 value=0x00000000 count=1
R350_PROBE read reg=0x16c4 value=0x00000000 count=1
R350_PROBE read reg=0x0050 value=0x03000600 count=1
R350_PROBE write reg=0x15d4 value=0x00000002 count=1
R350_PROBE write reg=0x15d0 value=0x00000002 count=1
R350_PROBE write reg=0x16c4 value=0x00000006 count=1
R350_PROBE read reg=0x0228 value=0x00000000 count=1
R350_PROBE write reg=0x0b00 value=0x00200001 count=2
R350_PROBE write reg=0x16e0 value=0x50000000 count=1
R350_PROBE read reg=0x0228 value=0x00000000 count=2
R350_PROBE read reg=0x0328 value=0x00000000 count=1
R350_PROBE write reg=0x15e0 value=0x00000000 count=2
R350_PROBE write reg=0x15e4 value=0x00000001 count=2
R350_PROBE write reg=0x16e8 value=0x1fff1fff count=1
R350_PROBE write reg=0x16cc value=0xffffffff count=1
R350_PROBE write reg=0x2284 value=0x00000000 count=1
R350_PROBE write reg=0x2080 value=0x00240455 count=1
R350_PROBE write reg=0x43b0 value=0x00000000 count=1
R350_PROBE write reg=0x43b4 value=0x03ffffff count=1
R350_PROBE write reg=0x43b8 value=0x00000000 count=1
R350_PROBE write reg=0x43bc value=0x03ffffff count=1
R350_PROBE write reg=0x43c0 value=0x00000000 count=1
R350_PROBE write reg=0x43c4 value=0x03ffffff count=1
R350_PROBE write reg=0x43c8 value=0x00000000 count=1
R350_PROBE write reg=0x43cc value=0x03ffffff count=1
R350_PROBE write reg=0x43d0 value=0x0000ffff count=1
R350_PROBE write reg=0x0714 value=0x00000008 count=3
R350_PROBE write reg=0x0738 value=0x10000020 count=1
R350_PROBE write reg=0x073c value=0x00000008 count=1
R350_PROBE write reg=0x0738 value=0x10002020 count=2
R350_PROBE write reg=0x073c value=0x00000008 count=2
R350_PROBE write reg=0x0714 value=0x00000010 count=4
R350_PROBE write reg=0x0738 value=0x10004020 count=3
R350_PROBE write reg=0x073c value=0x00000008 count=3
R350_PROBE write reg=0x0738 value=0x10006020 count=4
R350_PROBE write reg=0x073c value=0x00000008 count=4
R350_PROBE write reg=0x0714 value=0x00000018 count=5
R350_PROBE write reg=0x0738 value=0x10008020 count=5
R350_PROBE write reg=0x073c value=0x00000008 count=5
R350_PROBE write reg=0x0738 value=0x1000a020 count=6
R350_PROBE write reg=0x073c value=0x00000008 count=6
R350_PROBE write reg=0x0714 value=0x00000020 count=6
R350_PROBE write reg=0x0738 value=0x1000c020 count=7
R350_PROBE write reg=0x073c value=0x00000008 count=7
R350_PROBE write reg=0x0738 value=0x1000e020 count=8
R350_PROBE write reg=0x073c value=0x00000008 count=8
R350_PROBE write reg=0x0714 value=0x00000028 count=7
R350_PROBE write reg=0x0714 value=0x00000030 count=8
R350_PROBE write reg=0x0738 value=0x1001e020 count=16
R350_PROBE write reg=0x073c value=0x00000008 count=16
R350_PROBE write reg=0x0714 value=0x00000070 count=16
R350_PROBE write reg=0x0738 value=0x1001e020 count=32
R350_PROBE write reg=0x073c value=0x00000008 count=32
R350_PROBE write reg=0x4e4c value=0x0000000a count=2
R350_PROBE write reg=0x342c value=0x00000005 count=1
R350_PROBE write reg=0x4f18 value=0x00000003 count=1
R350_PROBE write reg=0x1720 value=0x00070000 count=1
R350_PROBE write reg=0x4018 value=0x00000017 count=3
R350_PROBE write reg=0x4020 value=0x00000000 count=1
R350_PROBE write reg=0x4e00 value=0x00000000 count=1
R350_PROBE write reg=0x4f1c value=0x00000000 count=1
R350_PROBE write reg=0x43a4 value=0x00000000 count=1
R350_PROBE write reg=0x16ec value=0x00000000 count=1
R350_PROBE write reg=0x16f0 value=0x03000400 count=1
R350_PROBE write reg=0x4010 value=0x66666666 count=1
R350_PROBE write reg=0x4014 value=0x06666666 count=1
R350_PROBE write reg=0x16e0 value=0x10000000 count=2
R350_PROBE write reg=0x4e28 value=0x00000000 count=1
R350_PROBE write reg=0x4e38 value=0x00d00400 count=1
R350_PROBE write reg=0x3428 value=0x00020100 count=1
R350_PROBE write reg=0x43e0 value=0x00b405a0 count=1
R350_PROBE write reg=0x43e4 value=0x011409a0 count=1
R350_PROBE write reg=0x15e0 value=0x00000001 count=3
R350_PROBE write reg=0x15e0 value=0x00000002 count=4
R350_PROBE read reg=0x0210 value=0x00240000 count=1
R350_PROBE read reg=0x0210 value=0x00850000 count=2
R350_PROBE write reg=0x0714 value=0x000000f0 count=32
R350_PROBE write reg=0x0738 value=0x1001a020 count=64
R350_PROBE write reg=0x073c value=0x00000008 count=64
R350_PROBE write reg=0x4290 value=0x00000000 count=1
R350_PROBE write reg=0x4e4c value=0x0000000a count=3
R350_PROBE write reg=0x4f18 value=0x00000003 count=2
R350_PROBE write reg=0x4e50 value=0x00000000 count=1
R350_PROBE write reg=0x2140 value=0x00000002 count=1
R350_PROBE write reg=0x42b4 value=0x00000000 count=1
R350_PROBE write reg=0x42b8 value=0x00000000 count=1
R350_PROBE write reg=0x4288 value=0x00000000 count=1
R350_PROBE write reg=0x428c value=0x00000001 count=1
R350_PROBE write reg=0x4234 value=0x00020000 count=1
R350_PROBE write reg=0x4008 value=0x00000007 count=1
R350_PROBE write reg=0x4214 value=0x00050005 count=1
R350_PROBE write reg=0x4238 value=0x00000000 count=1
R350_PROBE write reg=0x4260 value=0x00000000 count=1
R350_PROBE write reg=0x4264 value=0x00000000 count=1
R350_PROBE write reg=0x4268 value=0x3f800000 count=1
R350_PROBE write reg=0x401c value=0x00000000 count=1
R350_PROBE write reg=0x4020 value=0x00000000 count=2
R350_PROBE write reg=0x4010 value=0x66666666 count=2
R350_PROBE write reg=0x4014 value=0x06666666 count=2
R350_PROBE write reg=0x43e8 value=0x00ffffff count=1
R350_PROBE write reg=0x4e88 value=0x00000000 count=1
R350_PROBE write reg=0x4274 value=0x00000002 count=1
R350_PROBE write reg=0x42a0 value=0x00000000 count=1
R350_PROBE write reg=0x46a4 value=0x00001b0f count=1
R350_PROBE write reg=0x46a8 value=0x00001b0f count=1
R350_PROBE write reg=0x46ac value=0x00001b0f count=1
R350_PROBE write reg=0x46b0 value=0x00001b0f count=1
R350_PROBE write reg=0x4e14 value=0x00000000 count=1
R350_PROBE write reg=0x4294 value=0x00000000 count=1
R350_PROBE write reg=0x4298 value=0x00000000 count=1
R350_PROBE write reg=0x4278 value=0x00030000 count=1
R350_PROBE write reg=0x2184 value=0x00000000 count=1
R350_PROBE write reg=0x2090 value=0x00000000 count=1
R350_PROBE write reg=0x2094 value=0x00000000 count=1
R350_PROBE write reg=0x20b0 value=0x0000043f count=1
R350_PROBE write reg=0x20b4 value=0x00000000 count=1
R350_PROBE write reg=0x2180 value=0x00000000 count=1
R350_PROBE write reg=0x221c value=0x00000000 count=1
R350_PROBE write reg=0x2288 value=0x0000ffff count=1
R350_PROBE write reg=0x21dc value=0xaaaaaaaa count=1
R350_PROBE write reg=0x2134 value=0x00ffffff count=1
R350_PROBE write reg=0x2138 value=0x00000000 count=1
R350_PROBE write reg=0x1720 value=0x00008000 count=2
R350_PROBE write reg=0x43a8 value=0x2da49525 count=1
R350_PROBE write reg=0x4104 value=0x00000000 count=1
R350_PROBE write reg=0x1d98 value=0x00000000 count=1
R350_PROBE write reg=0x1d9c value=0x00000000 count=1
R350_PROBE write reg=0x1da0 value=0x00000000 count=1
R350_PROBE write reg=0x1da4 value=0x00000000 count=1
R350_PROBE write reg=0x1da8 value=0x00000000 count=1
R350_PROBE write reg=0x1dac value=0x00000000 count=1
R350_PROBE write reg=0x2220 value=0x3f800000 count=1
R350_PROBE write reg=0x2224 value=0x3f800000 count=1
R350_PROBE write reg=0x2228 value=0x3f800000 count=1
R350_PROBE write reg=0x222c value=0x3f800000 count=1
R350_PROBE write reg=0x4230 value=0x00000000 count=1
R350_PROBE write reg=0x421c value=0x00000000 count=1
R350_PROBE write reg=0x4200 value=0x00000000 count=1
R350_PROBE write reg=0x4204 value=0x00000000 count=1
R350_PROBE write reg=0x4208 value=0x3f800000 count=1
R350_PROBE write reg=0x420c value=0x3f800000 count=1
R350_PROBE write reg=0x4e18 value=0x00000000 count=1
R350_PROBE write reg=0x4e0c value=0x0000000f count=1
R350_PROBE write reg=0x43e0 value=0x00000000 count=2
R350_PROBE write reg=0x43e4 value=0x00000000 count=2
R350_PROBE write reg=0x4bd4 value=0x00000000 count=1
R350_PROBE write reg=0x4bd8 value=0x00000000 count=1
R350_PROBE write reg=0x4bc8 value=0x00000000 count=1
R350_PROBE write reg=0x4bcc value=0x00000000 count=1
R350_PROBE write reg=0x4bd0 value=0x00000000 count=1
R350_PROBE write reg=0x401c value=0x00000000 count=2
R350_PROBE write reg=0x4bc0 value=0x00000000 count=1
R350_PROBE write reg=0x427c value=0x00000000 count=1
R350_PROBE write reg=0x4280 value=0x00000000 count=1
R350_PROBE write reg=0x4e04 value=0x20220000 count=1
R350_PROBE write reg=0x4e08 value=0x00000000 count=1
R350_PROBE write reg=0x4e10 value=0x00000000 count=1
R350_PROBE write reg=0x4f14 value=0x00000001 count=1
R350_PROBE write reg=0x4f00 value=0x00000010 count=1
R350_PROBE write reg=0x4f04 value=0x00000000 count=1
R350_PROBE write reg=0x42c0 value=0x4b7fffff count=1
R350_PROBE write reg=0x42c4 value=0x00000000 count=1
R350_PROBE write reg=0x4c00 value=0x00000000 count=1
R350_PROBE write reg=0x4c04 value=0x00000000 count=1
R350_PROBE write reg=0x4c08 value=0x00000000 count=1
R350_PROBE write reg=0x4c0c value=0x00000000 count=1
R350_PROBE write reg=0x4c10 value=0x00000000 count=1
R350_PROBE write reg=0x4c14 value=0x00000000 count=1
R350_PROBE write reg=0x4c18 value=0x00000000 count=1
R350_PROBE write reg=0x4c1c value=0x00000000 count=1
R350_PROBE write reg=0x4c20 value=0x00000000 count=1
R350_PROBE write reg=0x4c24 value=0x00000000 count=1
R350_PROBE write reg=0x4c28 value=0x00000000 count=1
R350_PROBE write reg=0x4c2c value=0x00000000 count=1
R350_PROBE write reg=0x4c30 value=0x00000000 count=1
R350_PROBE write reg=0x4c34 value=0x00000000 count=1
R350_PROBE write reg=0x4c38 value=0x00000000 count=1
R350_PROBE write reg=0x4c3c value=0x00000000 count=1
R350_PROBE write reg=0x4c40 value=0x00000000 count=1
R350_PROBE write reg=0x4c44 value=0x00000000 count=1
R350_PROBE write reg=0x4c48 value=0x00000000 count=1
R350_PROBE write reg=0x4c4c value=0x00000000 count=1
R350_PROBE write reg=0x4c50 value=0x00000000 count=1
R350_PROBE write reg=0x4c54 value=0x00000000 count=1
R350_PROBE write reg=0x4c58 value=0x00000000 count=1
R350_PROBE write reg=0x4c5c value=0x00000000 count=1
R350_PROBE write reg=0x4c60 value=0x00000000 count=1
R350_PROBE write reg=0x4c64 value=0x00000000 count=1
R350_PROBE write reg=0x4c68 value=0x00000000 count=1
R350_PROBE write reg=0x4c6c value=0x00000000 count=1
R350_PROBE write reg=0x4c70 value=0x00000000 count=1
R350_PROBE write reg=0x4c74 value=0x00000000 count=1
R350_PROBE write reg=0x4c78 value=0x00000000 count=1
R350_PROBE write reg=0x4c7c value=0x00000000 count=1
R350_PROBE write reg=0x4600 value=0x00000000 count=1
R350_PROBE write reg=0x4604 value=0x00000000 count=1
R350_PROBE write reg=0x4608 value=0x00000000 count=1
R350_PROBE write reg=0x46b4 value=0x00000001 count=1
R350_PROBE write reg=0x4610 value=0x00000000 count=1
R350_PROBE write reg=0x4614 value=0x00000000 count=1
R350_PROBE write reg=0x4618 value=0x00000000 count=1
R350_PROBE write reg=0x461c value=0x00000000 count=1
R350_PROBE write reg=0x2200 value=0x00000406 count=1
R350_PROBE write reg=0x2208 value=0x00000000 count=1
R350_PROBE write reg=0x2208 value=0x00000000 count=2
R350_PROBE write reg=0x2208 value=0x00000000 count=3
R350_PROBE write reg=0x2208 value=0x00000000 count=4
R350_PROBE write reg=0x2284 value=0x00000000 count=2
R350_PROBE write reg=0x2200 value=0x000000fe count=2
R350_PROBE write reg=0x2208 value=0x00f00202 count=5
R350_PROBE write reg=0x2208 value=0x00d10001 count=6
R350_PROBE write reg=0x2208 value=0x016da001 count=7
R350_PROBE write reg=0x2208 value=0x016da001 count=8
R350_PROBE write reg=0x22d0 value=0x00000000 count=1
R350_PROBE write reg=0x22d4 value=0x00000000 count=1
R350_PROBE write reg=0x22d8 value=0x00000000 count=1
R350_PROBE write reg=0x22dc value=0x00000000 count=1
R350_PROBE write reg=0x2284 value=0x00000000 count=3
R350_PROBE write reg=0x2080 value=0x0030045a count=2
R350_PROBE write reg=0x4f18 value=0x00000003 count=3
R350_PROBE write reg=0x342c value=0x00000005 count=2
R350_PROBE write reg=0x4e4c value=0x0000000a count=4
R350_PROBE write reg=0x4018 value=0x00000017 count=4
R350_PROBE write reg=0x142c value=0x50000c00 count=1
R350_PROBE write reg=0x4e28 value=0x00300000 count=2
R350_PROBE write reg=0x4e2c value=0x00000000 count=1
R350_PROBE write reg=0x4e30 value=0x00000000 count=1
R350_PROBE write reg=0x4e34 value=0x00000000 count=1
R350_PROBE write reg=0x4e38 value=0x02d14400 count=2
R350_PROBE write reg=0x4e3c value=0x00000000 count=1
R350_PROBE write reg=0x4e40 value=0x00000000 count=1
R350_PROBE write reg=0x4e44 value=0x00000000 count=1
R350_PROBE write reg=0x4e00 value=0x00000000 count=2
R350_PROBE write reg=0x4e14 value=0x00000000 count=2
R350_PROBE write reg=0x4e54 value=0x00000001 count=1
R350_PROBE write reg=0x4e64 value=0x00000400 count=1
R350_PROBE write reg=0x4f20 value=0x00000000 count=1
R350_PROBE write reg=0x4f24 value=0x00000000 count=1
R350_PROBE write reg=0x4f60 value=0x00000000 count=1
R350_PROBE write reg=0x4f10 value=0x00000000 count=1
R350_PROBE write reg=0x4f28 value=0x00000000 count=1
R350_PROBE write reg=0x4f1c value=0x00000000 count=2
R350_PROBE write reg=0x4f30 value=0x00000000 count=1
R350_PROBE write reg=0x4f34 value=0x00000000 count=1
R350_PROBE write reg=0x43a4 value=0x00000000 count=2
R350_PROBE write reg=0x4f44 value=0x00000000 count=1
R350_PROBE write reg=0x4f54 value=0x00000000 count=1
R350_PROBE write reg=0x43b0 value=0x00b405a0 count=2
R350_PROBE write reg=0x43b4 value=0x011409a0 count=2
R350_PROBE write reg=0x43d0 value=0x0000aaaa count=2
R350_PROBE write reg=0x16ec value=0x00000000 count=2
R350_PROBE write reg=0x16f0 value=0x03000400 count=2
R350_PROBE write reg=0x20c8 value=0x00000000 count=1
R350_PROBE write reg=0x20cc value=0x00000000 count=1
R350_PROBE write reg=0x20d4 value=0x00000000 count=1
R350_PROBE write reg=0x20d8 value=0x00000000 count=1
R350_PROBE write reg=0x20e0 value=0x00000000 count=1
R350_PROBE write reg=0x20e4 value=0x00000000 count=1
R350_PROBE write reg=0x20ec value=0x00000000 count=1
R350_PROBE write reg=0x20f0 value=0x00000000 count=1
R350_PROBE write reg=0x20f8 value=0x00000000 count=1
R350_PROBE write reg=0x20fc value=0x00000000 count=1
R350_PROBE write reg=0x2104 value=0x00000000 count=1
R350_PROBE write reg=0x2108 value=0x00000000 count=1
R350_PROBE write reg=0x2110 value=0x00000000 count=1
R350_PROBE write reg=0x2114 value=0x00000000 count=1
R350_PROBE write reg=0x211c value=0x00000000 count=1
R350_PROBE write reg=0x2120 value=0x00000000 count=1
R350_PROBE write reg=0x4100 value=0x00000000 count=1
R350_PROBE write reg=0x15e0 value=0x00000003 count=5
R350_PROBE write reg=0x4608 value=0x00000000 count=2
R350_PROBE write reg=0x48c0 value=0x00050a80 count=1
R350_PROBE write reg=0x46c0 value=0x1c020800 count=1
R350_PROBE write reg=0x49c0 value=0x00040889 count=1
R350_PROBE write reg=0x47c0 value=0x01020800 count=1
R350_PROBE write reg=0x20b0 value=0x0000043f count=2
R350_PROBE write reg=0x221c value=0x00000000 count=2
R350_PROBE write reg=0x4608 value=0x00000001 count=3
R350_PROBE write reg=0x48c4 value=0x00050a80 count=1
R350_PROBE write reg=0x46c4 value=0x1c020800 count=1
R350_PROBE write reg=0x49c4 value=0x00040889 count=1
R350_PROBE write reg=0x47c4 value=0x01020800 count=1
R350_PROBE write reg=0x4100 value=0x00000000 count=2
R350_PROBE write reg=0x2180 value=0x00000000 count=2
R350_PROBE write reg=0x4104 value=0x00000000 count=2
R350_PROBE write reg=0x4bc8 value=0x00000000 count=2
R350_PROBE write reg=0x4bcc value=0x00000000 count=2
R350_PROBE write reg=0x4bd0 value=0x00000000 count=2
R350_PROBE write reg=0x4bc0 value=0x00000000 count=2
R350_PROBE write reg=0x4294 value=0x00000000 count=2
R350_PROBE write reg=0x4298 value=0x00000000 count=2
R350_PROBE write reg=0x401c value=0x00000000 count=3
R350_PROBE write reg=0x4e04 value=0x20220000 count=2
R350_PROBE write reg=0x4e08 value=0x00000000 count=2
R350_PROBE write reg=0x4e10 value=0x00000000 count=2
R350_PROBE write reg=0x4e50 value=0x00000005 count=2
R350_PROBE write reg=0x4bd4 value=0x00000000 count=2
R350_PROBE write reg=0x4f14 value=0x00000000 count=2
R350_PROBE write reg=0x4f00 value=0x00000010 count=2
R350_PROBE write reg=0x4f04 value=0x00000000 count=2
R350_PROBE write reg=0x4f08 value=0x00ffff00 count=1
R350_PROBE write reg=0x421c value=0x00060006 count=2
R350_PROBE write reg=0x4200 value=0x00000000 count=2
R350_PROBE write reg=0x4204 value=0x00000000 count=2
R350_PROBE write reg=0x4208 value=0x3f800000 count=2
R350_PROBE write reg=0x420c value=0x3f800000 count=2
R350_PROBE write reg=0x4230 value=0x01800006 count=2
R350_PROBE write reg=0x4234 value=0x00020006 count=2
R350_PROBE write reg=0x4238 value=0x00000000 count=2
R350_PROBE write reg=0x4268 value=0x3f800000 count=2
R350_PROBE write reg=0x4e0c value=0x0000000f count=2
R350_PROBE write reg=0x4278 value=0x0003aaaa count=2
R350_PROBE write reg=0x46a4 value=0x00001b00 count=2
R350_PROBE write reg=0x46a8 value=0x0000000f count=2
R350_PROBE write reg=0x46ac value=0x0000000f count=2
R350_PROBE write reg=0x46b0 value=0x0000000f count=2
R350_PROBE write reg=0x42c4 value=0x00000000 count=2
R350_PROBE write reg=0x42c0 value=0x4b7fffff count=2
R350_PROBE write reg=0x42b8 value=0x00000000 count=2
R350_PROBE write reg=0x4020 value=0x00000000 count=3
R350_PROBE write reg=0x4010 value=0x66666666 count=3
R350_PROBE write reg=0x4014 value=0x06666666 count=3
R350_PROBE write reg=0x43e8 value=0x00ffffff count=2
R350_PROBE write reg=0x43e0 value=0x00b405a0 count=3
R350_PROBE write reg=0x43e4 value=0x0113e99f count=3
R350_PROBE write reg=0x1d98 value=0x00000000 count=2
R350_PROBE write reg=0x1d9c value=0x00000000 count=2
R350_PROBE write reg=0x1da0 value=0x80000000 count=2
R350_PROBE write reg=0x1da4 value=0x44400000 count=2
R350_PROBE write reg=0x1da8 value=0x3f000000 count=2
R350_PROBE write reg=0x1dac value=0x3f000000 count=2
R350_PROBE write reg=0x2220 value=0x3f800000 count=2
R350_PROBE write reg=0x2224 value=0x3f800000 count=2
R350_PROBE write reg=0x2228 value=0x3f800000 count=2
R350_PROBE write reg=0x222c value=0x3f800000 count=2
R350_PROBE write reg=0x2180 value=0x00000000 count=3
R350_PROBE write reg=0x2184 value=0x00000005 count=2
R350_PROBE write reg=0x20b4 value=0x00000008 count=2
R350_PROBE write reg=0x2090 value=0x00000003 count=2
R350_PROBE write reg=0x2094 value=0x00000000 count=2
R350_PROBE write reg=0x221c value=0x00000000 count=3
R350_PROBE write reg=0x4008 value=0x00000007 count=2
R350_PROBE write reg=0x2094 value=0x00000000 count=3
R350_PROBE write reg=0x4600 value=0x00000000 count=2
R350_PROBE write reg=0x4604 value=0x00000000 count=2
R350_PROBE write reg=0x4608 value=0x00000001 count=4
R350_PROBE write reg=0x46b4 value=0x00000001 count=2
R350_PROBE write reg=0x4610 value=0x00000000 count=2
R350_PROBE write reg=0x4614 value=0x00000000 count=2
R350_PROBE write reg=0x4618 value=0x00000000 count=2
R350_PROBE write reg=0x461c value=0x00400000 count=2
R350_PROBE write reg=0x4300 value=0x00040080 count=1
R350_PROBE write reg=0x4304 value=0x00000000 count=1
R350_PROBE write reg=0x4330 value=0x00004000 count=1
R350_PROBE write reg=0x4310 value=0x00d10000 count=1
R350_PROBE write reg=0x4314 value=0x00d10040 count=1
R350_PROBE write reg=0x4318 value=0x00d10080 count=1
R350_PROBE write reg=0x431c value=0x00d100c0 count=1
R350_PROBE write reg=0x4320 value=0x00d10000 count=1
R350_PROBE write reg=0x4324 value=0x00d10000 count=1
R350_PROBE write reg=0x4328 value=0x00d10000 count=1
R350_PROBE write reg=0x432c value=0x00d10000 count=1
R350_PROBE write reg=0x2284 value=0x00000000 count=4
R350_PROBE write reg=0x2200 value=0x00000080 count=3
R350_PROBE write reg=0x2208 value=0x00d10005 count=16
R350_PROBE write reg=0x2208 value=0x016da025 count=32
R350_PROBE write reg=0x22d0 value=0x08420c80 count=2
R350_PROBE write reg=0x22d4 value=0x00040080 count=2
R350_PROBE write reg=0x22d8 value=0x00000084 count=2
R350_PROBE write reg=0x22dc value=0x00000000 count=2
R350_PROBE write reg=0x2284 value=0x00000000 count=5
R350_PROBE write reg=0x2080 value=0x0030045a count=3
R350_PROBE write reg=0x2284 value=0x00000000 count=6
R350_PROBE write reg=0x2200 value=0x00000280 count=4
R350_PROBE write reg=0x4bd4 value=0x00000000 count=3
R350_PROBE write reg=0x4020 value=0x00000000 count=4
R350_PROBE write reg=0x4010 value=0x66666666 count=4
R350_PROBE write reg=0x4014 value=0x06666666 count=4
R350_PROBE write reg=0x43e8 value=0x00ffffff count=3
R350_PROBE write reg=0x4f18 value=0x00000003 count=4
R350_PROBE write reg=0x342c value=0x00000005 count=3
R350_PROBE write reg=0x4e4c value=0x0000000a count=5
R350_PROBE write reg=0x4018 value=0x00000017 count=5
R350_PROBE write reg=0x142c value=0x50000c00 count=2
R350_PROBE write reg=0x4e28 value=0x00300000 count=3
R350_PROBE write reg=0x4e2c value=0x00000000 count=2
R350_PROBE write reg=0x4e30 value=0x00000000 count=2
R350_PROBE write reg=0x4e34 value=0x00000000 count=2
R350_PROBE write reg=0x4e38 value=0x2ed14400 count=3
R350_PROBE write reg=0x4e3c value=0x00000000 count=2
R350_PROBE write reg=0x4e40 value=0x00000000 count=2
R350_PROBE write reg=0x4e44 value=0x00000000 count=2
R350_PROBE write reg=0x4e00 value=0x00000000 count=3
R350_PROBE write reg=0x4e14 value=0x00000000 count=3
R350_PROBE write reg=0x4e54 value=0x00000001 count=2
R350_PROBE write reg=0x4e64 value=0x00000400 count=2
R350_PROBE write reg=0x4f20 value=0x00000000 count=2
R350_PROBE write reg=0x4f24 value=0x00000000 count=2
R350_PROBE write reg=0x4f60 value=0x00000000 count=2
R350_PROBE write reg=0x4f10 value=0x00000000 count=2
R350_PROBE write reg=0x4f28 value=0x00000000 count=2
R350_PROBE write reg=0x4f1c value=0x00000000 count=3
R350_PROBE write reg=0x4f30 value=0x00000000 count=2
R350_PROBE write reg=0x4f34 value=0x00000000 count=2
R350_PROBE write reg=0x43a4 value=0x00000000 count=3
R350_PROBE write reg=0x4f44 value=0x00000000 count=2
R350_PROBE write reg=0x4f54 value=0x00000000 count=2
R350_PROBE write reg=0x43b0 value=0x00b405a0 count=3
R350_PROBE write reg=0x43b4 value=0x011409a0 count=3
R350_PROBE write reg=0x43d0 value=0x0000aaaa count=3
R350_PROBE write reg=0x16ec value=0x00000000 count=3
R350_PROBE write reg=0x16f0 value=0x03000400 count=3
R350_PROBE write reg=0x20b0 value=0x0000043f count=3
R350_PROBE write reg=0x221c value=0x00000000 count=4
R350_PROBE write reg=0x4608 value=0x00000002 count=5
R350_PROBE write reg=0x48c8 value=0x40050200 count=1
R350_PROBE write reg=0x46c8 value=0x1c020040 count=1
R350_PROBE write reg=0x49c8 value=0x40040509 count=1
R350_PROBE write reg=0x47c8 value=0x01020800 count=1
R350_PROBE write reg=0x4620 value=0x00018041 count=1
R350_PROBE write reg=0x4100 value=0x00000000 count=3
R350_PROBE write reg=0x2180 value=0x00000000 count=4
R350_PROBE write reg=0x4400 value=0x00000a12 count=1
R350_PROBE write reg=0x4440 value=0x00001fe8 count=1
R350_PROBE write reg=0x4480 value=0x8007f8ff count=1
R350_PROBE write reg=0x44c0 value=0x0000aa0c count=1
R350_PROBE write reg=0x45c0 value=0x00000000 count=1
R350_PROBE write reg=0x4580 value=0x00000000 count=1
R350_PROBE write reg=0x4500 value=0x000000ff count=1
R350_PROBE write reg=0x4104 value=0x00000001 count=3
R350_PROBE write reg=0x4bc8 value=0x00000000 count=3
R350_PROBE write reg=0x4bcc value=0x00000000 count=3
R350_PROBE write reg=0x4bd0 value=0x00000000 count=3
R350_PROBE write reg=0x4bc0 value=0x00000000 count=3
R350_PROBE write reg=0x4294 value=0x00000000 count=3
R350_PROBE write reg=0x4298 value=0x00000000 count=3
R350_PROBE write reg=0x401c value=0x00000000 count=4
R350_PROBE write reg=0x4e04 value=0x20220000 count=3
R350_PROBE write reg=0x4e08 value=0x00000000 count=3
R350_PROBE write reg=0x4e10 value=0x00000000 count=3
R350_PROBE write reg=0x4e50 value=0x00000005 count=3
R350_PROBE write reg=0x4bd4 value=0x00000c00 count=4
R350_PROBE write reg=0x4f14 value=0x00000001 count=3
R350_PROBE write reg=0x4f00 value=0x00000010 count=3
R350_PROBE write reg=0x4f04 value=0x00000000 count=3
R350_PROBE write reg=0x4f08 value=0x00ffff00 count=2
R350_PROBE write reg=0x421c value=0x00060006 count=3
R350_PROBE write reg=0x4200 value=0x00000000 count=3
R350_PROBE write reg=0x4204 value=0x00000000 count=3
R350_PROBE write reg=0x4208 value=0x3f800000 count=3
R350_PROBE write reg=0x420c value=0x3f800000 count=3
R350_PROBE write reg=0x4230 value=0x01800006 count=3
R350_PROBE write reg=0x4234 value=0x00020006 count=3
R350_PROBE write reg=0x4238 value=0x00000000 count=3
R350_PROBE write reg=0x4268 value=0x3f800000 count=3
R350_PROBE write reg=0x4e0c value=0x0000000f count=3
R350_PROBE write reg=0x4278 value=0x0003aaaa count=3
R350_PROBE write reg=0x46a4 value=0x00001b00 count=3
R350_PROBE write reg=0x46a8 value=0x0000000f count=3
R350_PROBE write reg=0x46ac value=0x0000000f count=3
R350_PROBE write reg=0x46b0 value=0x0000000f count=3
R350_PROBE write reg=0x42c4 value=0x00000000 count=3
R350_PROBE write reg=0x42c0 value=0x4b7fffff count=3
R350_PROBE write reg=0x42b8 value=0x00000000 count=3
R350_PROBE write reg=0x4020 value=0x00000000 count=5
R350_PROBE write reg=0x4010 value=0x66666666 count=5
R350_PROBE write reg=0x4014 value=0x06666666 count=5
R350_PROBE write reg=0x43e8 value=0x00ffffff count=4
R350_PROBE write reg=0x1d98 value=0x44000000 count=3
R350_PROBE write reg=0x1d9c value=0x44000000 count=3
R350_PROBE write reg=0x1da0 value=0xc3c00000 count=3
R350_PROBE write reg=0x1da4 value=0x43c00000 count=3
R350_PROBE write reg=0x1da8 value=0x3f000000 count=3
R350_PROBE write reg=0x1dac value=0x3f000000 count=3
R350_PROBE write reg=0x2220 value=0x3f800000 count=3
R350_PROBE write reg=0x2224 value=0x3f800000 count=3
R350_PROBE write reg=0x2228 value=0x3f800000 count=3
R350_PROBE write reg=0x222c value=0x3f800000 count=3
R350_PROBE write reg=0x2180 value=0x00000000 count=5
R350_PROBE write reg=0x2184 value=0x00000405 count=3
R350_PROBE write reg=0x20b4 value=0x0000000c count=3
R350_PROBE write reg=0x2090 value=0x00000003 count=3
R350_PROBE write reg=0x2094 value=0x00000004 count=4
R350_PROBE write reg=0x221c value=0x00000000 count=5
R350_PROBE write reg=0x4008 value=0x00000007 count=3
R350_PROBE write reg=0x2094 value=0x00000004 count=5
R350_PROBE write reg=0x4c00 value=0x003f0000 count=2
R350_PROBE write reg=0x4c04 value=0x003f0000 count=2
R350_PROBE write reg=0x4c08 value=0x003f0000 count=2
R350_PROBE write reg=0x4c0c value=0x003f0000 count=2
R350_PROBE write reg=0x4600 value=0x00000008 count=3
R350_PROBE write reg=0x4604 value=0x00000001 count=3
R350_PROBE write reg=0x4608 value=0x00000002 count=6
R350_PROBE write reg=0x46b4 value=0x00000001 count=3
R350_PROBE write reg=0x4610 value=0x00000000 count=3
R350_PROBE write reg=0x4614 value=0x00000000 count=3
R350_PROBE write reg=0x4618 value=0x00000000 count=3
R350_PROBE write reg=0x461c value=0x00400000 count=3
R350_PROBE write reg=0x4c00 value=0x003f0000 count=3
R350_PROBE write reg=0x4c04 value=0x003f0000 count=3
R350_PROBE write reg=0x4c08 value=0x003f0000 count=3
R350_PROBE write reg=0x4c0c value=0x003f0000 count=3
R350_PROBE write reg=0x4300 value=0x00040084 count=2
R350_PROBE write reg=0x4304 value=0x00000000 count=2
R350_PROBE write reg=0x4330 value=0x00004048 count=2
R350_PROBE write reg=0x4310 value=0x00d10000 count=2
R350_PROBE write reg=0x4314 value=0x00d10044 count=2
R350_PROBE write reg=0x4318 value=0x00d10084 count=2
R350_PROBE write reg=0x431c value=0x00d100c4 count=2
R350_PROBE write reg=0x4320 value=0x00d10004 count=2
R350_PROBE write reg=0x4324 value=0x00d10004 count=2
R350_PROBE write reg=0x4328 value=0x00d10004 count=2
R350_PROBE write reg=0x432c value=0x00d10004 count=2
R350_PROBE write reg=0x2284 value=0x00000000 count=7
R350_PROBE write reg=0x2200 value=0x00000080 count=5
R350_PROBE write reg=0x2208 value=0x00d10005 count=64
R350_PROBE write reg=0x22d0 value=0x08820c80 count=3
R350_PROBE write reg=0x22d4 value=0x00080080 count=3
R350_PROBE write reg=0x22d8 value=0x00000088 count=3
R350_PROBE write reg=0x22dc value=0x00000000 count=3
R350_PROBE write reg=0x2284 value=0x00000000 count=8
R350_PROBE write reg=0x2200 value=0x00000280 count=6
R350_PROBE write reg=0x4bd4 value=0x00000c00 count=5
R350_PROBE write reg=0x4020 value=0x00000000 count=6
R350_PROBE write reg=0x4010 value=0x66666666 count=6
R350_PROBE write reg=0x4014 value=0x06666666 count=6
R350_PROBE write reg=0x43e8 value=0x00ffffff count=5
R350_PROBE write reg=0x4f18 value=0x00000003 count=5
R350_PROBE write reg=0x342c value=0x00000005 count=4
R350_PROBE write reg=0x4e4c value=0x0000000a count=6
R350_PROBE write reg=0x4018 value=0x00000017 count=6
R350_PROBE write reg=0x142c value=0x50000c00 count=3
R350_PROBE write reg=0x4e28 value=0x00300000 count=4
R350_PROBE write reg=0x4e2c value=0x00000000 count=3
R350_PROBE write reg=0x4e30 value=0x00000000 count=3
R350_PROBE write reg=0x4e34 value=0x00000000 count=3
R350_PROBE write reg=0x4e38 value=0x2ed14400 count=4
R350_PROBE write reg=0x4e3c value=0x00000000 count=3
R350_PROBE write reg=0x4e40 value=0x00000000 count=3
R350_PROBE write reg=0x4e44 value=0x00000000 count=3
R350_PROBE write reg=0x4e00 value=0x00000000 count=4
R350_PROBE write reg=0x4e14 value=0x00000000 count=4
R350_PROBE write reg=0x4e54 value=0x00000001 count=3
R350_PROBE write reg=0x4e64 value=0x00000400 count=3
R350_PROBE write reg=0x4f20 value=0x00000000 count=3
R350_PROBE write reg=0x4f24 value=0x00000000 count=3
R350_PROBE write reg=0x4f60 value=0x00000000 count=3
R350_PROBE write reg=0x4f10 value=0x00000000 count=3
R350_PROBE write reg=0x4f28 value=0x00000000 count=3
R350_PROBE write reg=0x4f1c value=0x00000000 count=4
R350_PROBE write reg=0x4f30 value=0x00000000 count=3
R350_PROBE write reg=0x4f34 value=0x00000000 count=3
R350_PROBE write reg=0x43a4 value=0x00000000 count=4
R350_PROBE write reg=0x4f44 value=0x00000000 count=3
R350_PROBE write reg=0x4f54 value=0x00000000 count=3
R350_PROBE write reg=0x43b0 value=0x00b405a0 count=4
R350_PROBE write reg=0x43b4 value=0x011409a0 count=4
R350_PROBE write reg=0x43d0 value=0x0000aaaa count=4
R350_PROBE write reg=0x16ec value=0x00000000 count=4
R350_PROBE write reg=0x16f0 value=0x03000400 count=4
R350_PROBE write reg=0x4e4c value=0x00000000 count=7
R350_PROBE write reg=0x1720 value=0x00020000 count=3
R350_PROBE write reg=0x15e0 value=0x00000004 count=6
R350_PROBE write reg=0x4e4c value=0x0000000a count=8
R350_PROBE write reg=0x1720 value=0x00020000 count=4
R350_PROBE write reg=0x15d4 value=0x00000002 count=2
R350_PROBE write reg=0x146c value=0x42cc36f3 count=1
R350_PROBE write reg=0x15ac value=0x10054000 count=1
R350_PROBE write reg=0x15b0 value=0x00001000 count=1
R350_PROBE write reg=0x1404 value=0x00600000 count=1
R350_PROBE write reg=0x1408 value=0x00000400 count=1
R350_PROBE write reg=0x1704 value=0x00000000 count=1
R350_PROBE write reg=0x1700 value=0x00000000 count=1
R350_PROBE write reg=0x1434 value=0x00000000 count=1
R350_PROBE write reg=0x1438 value=0x00000000 count=1
R350_PROBE write reg=0x143c value=0x01000100 count=1
R350_PROBE write reg=0x342c value=0x00000005 count=5
R350_PROBE write reg=0x1720 value=0x00010000 count=5
R350_PROBE write reg=0x4100 value=0x00000000 count=4
R350_PROBE write reg=0x142c value=0x50000c00 count=4
R350_PROBE write reg=0x15e0 value=0x00000005 count=7
R350_PROBE write reg=0x4540 value=0x00600000 count=1
R350_PROBE write reg=0x2150 value=0x01030003 count=1
R350_PROBE write reg=0x2154 value=0x00002203 count=1
R350_PROBE write reg=0x21e0 value=0xf688f688 count=1
R350_PROBE write reg=0x21e4 value=0x0000f688 count=1
R350_PROBE write reg=0x20b4 value=0x0000000c count=4
R350_PROBE write reg=0x1720 value=0x10000000 count=6
R350_PROBE unsupported_3d_draw count=1; R200 renderer deliberately not used
R350_PROBE write reg=0x4100 value=0x00000000 count=5
R350_PROBE write reg=0x4400 value=0x00000a12 count=2
R350_PROBE write reg=0x4440 value=0x00001fe8 count=2
R350_PROBE write reg=0x4480 value=0x8007f8ff count=2
R350_PROBE write reg=0x44c0 value=0x0000aa0c count=2
R350_PROBE write reg=0x45c0 value=0x00000000 count=2
R350_PROBE write reg=0x4580 value=0x00000000 count=2
R350_PROBE write reg=0x4500 value=0x000000ff count=2
R350_PROBE write reg=0x4104 value=0x00000001 count=4
R350_PROBE write reg=0x4bd4 value=0x00000c00 count=6
R350_PROBE write reg=0x4020 value=0x00000000 count=7
R350_PROBE write reg=0x4010 value=0x66666666 count=7
R350_PROBE write reg=0x4014 value=0x06666666 count=7
R350_PROBE write reg=0x43e8 value=0x00ffffff count=6
R350_PROBE write reg=0x4c00 value=0x003f0000 count=4
R350_PROBE write reg=0x4c04 value=0x003f0000 count=4
R350_PROBE write reg=0x4c08 value=0x003f0000 count=4
R350_PROBE write reg=0x4c0c value=0x003f0000 count=4
R350_PROBE write reg=0x4600 value=0x00000008 count=4
R350_PROBE write reg=0x4604 value=0x00000001 count=4
R350_PROBE write reg=0x4608 value=0x00000002 count=7
R350_PROBE write reg=0x46b4 value=0x00000001 count=4
R350_PROBE write reg=0x4610 value=0x00000000 count=4
R350_PROBE write reg=0x4614 value=0x00000000 count=4
R350_PROBE write reg=0x4618 value=0x00000000 count=4
R350_PROBE write reg=0x461c value=0x00400000 count=4
R350_PROBE write reg=0x4c00 value=0x003f0000 count=5
R350_PROBE write reg=0x4c04 value=0x003f0000 count=5
R350_PROBE write reg=0x4c08 value=0x003f0000 count=5
R350_PROBE write reg=0x4c0c value=0x003f0000 count=5
R350_PROBE write reg=0x4300 value=0x00040084 count=3
R350_PROBE write reg=0x4304 value=0x00000000 count=3
R350_PROBE write reg=0x4330 value=0x00004048 count=3
R350_PROBE write reg=0x4310 value=0x00d10000 count=3
R350_PROBE write reg=0x4314 value=0x00d10044 count=3
R350_PROBE write reg=0x4318 value=0x00d10084 count=3
R350_PROBE write reg=0x431c value=0x00d100c4 count=3
R350_PROBE write reg=0x4320 value=0x00d10004 count=3
R350_PROBE write reg=0x4324 value=0x00d10004 count=3
R350_PROBE write reg=0x4328 value=0x00d10004 count=3
R350_PROBE write reg=0x432c value=0x00d10004 count=3
R350_PROBE write reg=0x2200 value=0x00000280 count=7
R350_PROBE write reg=0x2208 value=0x00000000 count=128
R350_PROBE write reg=0x1720 value=0x00020000 count=7
R350_PROBE write reg=0x15e0 value=0x00000006 count=8
R350_PROBE write reg=0x0714 value=0x000001f0 count=64
R350_PROBE write reg=0x1720 value=0x00020000 count=8
R350_PROBE write reg=0x15d4 value=0x00000002 count=3
R350_PROBE write reg=0x146c value=0x42cc36f3 count=2
R350_PROBE write reg=0x15ac value=0x10054400 count=2
R350_PROBE write reg=0x15b0 value=0x00001000 count=2
R350_PROBE write reg=0x1404 value=0x00640000 count=2
R350_PROBE write reg=0x1408 value=0x00000400 count=2
R350_PROBE write reg=0x1704 value=0x00000000 count=2
R350_PROBE write reg=0x1700 value=0x00000000 count=2
R350_PROBE write reg=0x1434 value=0x00000000 count=2
R350_PROBE write reg=0x1438 value=0x00000000 count=2
R350_PROBE write reg=0x143c value=0x01000100 count=2
R350_PROBE write reg=0x342c value=0x00000005 count=6
R350_PROBE write reg=0x4100 value=0x00000000 count=6
R350_PROBE write reg=0x142c value=0x50000c00 count=5
R350_PROBE write reg=0x4540 value=0x00640000 count=2
R350_PROBE unsupported_3d_draw count=2; R200 renderer deliberately not used
R350_PROBE write reg=0x4100 value=0x00000000 count=7
R350_PROBE write reg=0x4400 value=0x00000a12 count=3
R350_PROBE write reg=0x4440 value=0x00001fe8 count=3
R350_PROBE write reg=0x4480 value=0x8007f8ff count=3
R350_PROBE write reg=0x44c0 value=0x0000aa0c count=3
R350_PROBE write reg=0x45c0 value=0x00000000 count=3
R350_PROBE write reg=0x4580 value=0x00000000 count=3
R350_PROBE write reg=0x4500 value=0x000000ff count=3
R350_PROBE write reg=0x4104 value=0x00000001 count=5
R350_PROBE write reg=0x4c00 value=0x003f0000 count=6
R350_PROBE write reg=0x4c04 value=0x003f0000 count=6
R350_PROBE write reg=0x4c08 value=0x003f0000 count=6
R350_PROBE write reg=0x4c0c value=0x003f0000 count=6
R350_PROBE write reg=0x2200 value=0x00000280 count=8
R350_PROBE write reg=0x0738 value=0x1000e020 count=128
R350_PROBE write reg=0x073c value=0x00000008 count=128
R350_PROBE write reg=0x15d4 value=0x00000002 count=4
R350_PROBE write reg=0x146c value=0x42cc36f3 count=3
R350_PROBE write reg=0x15ac value=0x10054800 count=3
R350_PROBE write reg=0x15b0 value=0x00001000 count=3
R350_PROBE write reg=0x1404 value=0x00680000 count=3
R350_PROBE write reg=0x1408 value=0x00000400 count=3
R350_PROBE write reg=0x1704 value=0x00000000 count=3
R350_PROBE write reg=0x1700 value=0x00000000 count=3
R350_PROBE write reg=0x1434 value=0x00000000 count=3
R350_PROBE write reg=0x1438 value=0x00000000 count=3
R350_PROBE write reg=0x143c value=0x01000100 count=3
R350_PROBE write reg=0x342c value=0x00000005 count=7
R350_PROBE write reg=0x4100 value=0x00000000 count=8
R350_PROBE write reg=0x142c value=0x50000c00 count=6
R350_PROBE write reg=0x4540 value=0x00680000 count=3
R350_PROBE unsupported_3d_draw count=3; R200 renderer deliberately not used
R350_PROBE write reg=0x4400 value=0x00000a12 count=4
R350_PROBE write reg=0x4440 value=0x00001fe8 count=4
R350_PROBE write reg=0x4480 value=0x8007f8ff count=4
R350_PROBE write reg=0x44c0 value=0x0000aa0c count=4
R350_PROBE write reg=0x45c0 value=0x00000000 count=4
R350_PROBE write reg=0x4580 value=0x00000000 count=4
R350_PROBE write reg=0x4500 value=0x000000ff count=4
R350_PROBE write reg=0x4104 value=0x00000001 count=6
R350_PROBE write reg=0x4c00 value=0x003f0000 count=7
R350_PROBE write reg=0x4c04 value=0x003f0000 count=7
R350_PROBE write reg=0x4c08 value=0x003f0000 count=7
R350_PROBE write reg=0x4c0c value=0x003f0000 count=7
R350_PROBE write reg=0x4e4c value=0x00000000 count=16
R350_PROBE write reg=0x15d4 value=0x00000002 count=5
R350_PROBE write reg=0x146c value=0x42cc36f3 count=4
R350_PROBE write reg=0x15ac value=0x10054c00 count=4
R350_PROBE write reg=0x15b0 value=0x00001000 count=4
R350_PROBE write reg=0x1404 value=0x006c0000 count=4
R350_PROBE write reg=0x1408 value=0x00000400 count=4
R350_PROBE write reg=0x1704 value=0x00000000 count=4
R350_PROBE write reg=0x1700 value=0x00000000 count=4
R350_PROBE write reg=0x1434 value=0x00000000 count=4
R350_PROBE write reg=0x1438 value=0x00000000 count=4
R350_PROBE write reg=0x143c value=0x01000100 count=4
R350_PROBE write reg=0x342c value=0x00000005 count=8
R350_PROBE write reg=0x142c value=0x50000c00 count=7
R350_PROBE write reg=0x4540 value=0x006c0000 count=4
R350_PROBE unsupported_3d_draw count=4; R200 renderer deliberately not used
R350_PROBE write reg=0x4400 value=0x00000a12 count=5
R350_PROBE write reg=0x4440 value=0x00001fe8 count=5
R350_PROBE write reg=0x4480 value=0x8007f8ff count=5
R350_PROBE write reg=0x44c0 value=0x0000aa0c count=5
R350_PROBE write reg=0x45c0 value=0x00000000 count=5
R350_PROBE write reg=0x4580 value=0x00000000 count=5
R350_PROBE write reg=0x4500 value=0x000000ff count=5
R350_PROBE write reg=0x4104 value=0x00000001 count=7
R350_PROBE write reg=0x4c00 value=0x003f0000 count=8
R350_PROBE write reg=0x4c04 value=0x003f0000 count=8
R350_PROBE write reg=0x4c08 value=0x003f0000 count=8
R350_PROBE write reg=0x4c0c value=0x003f0000 count=8
R350_PROBE write reg=0x1720 value=0x00020000 count=16
R350_PROBE write reg=0x15d4 value=0x00000002 count=6
R350_PROBE write reg=0x146c value=0x42cc36f3 count=5
R350_PROBE write reg=0x15ac value=0x1015c000 count=5
R350_PROBE write reg=0x15b0 value=0x00001000 count=5
R350_PROBE write reg=0x1404 value=0x00700000 count=5
R350_PROBE write reg=0x1408 value=0x00000400 count=5
R350_PROBE write reg=0x1704 value=0x00000000 count=5
R350_PROBE write reg=0x1700 value=0x00000000 count=5
R350_PROBE write reg=0x1434 value=0x00000000 count=5
R350_PROBE write reg=0x1438 value=0x00000000 count=5
R350_PROBE write reg=0x143c value=0x01000100 count=5
R350_PROBE write reg=0x142c value=0x50000c00 count=8
R350_PROBE write reg=0x4540 value=0x00700000 count=5
R350_PROBE unsupported_3d_draw count=5; R200 renderer deliberately not used
R350_PROBE write reg=0x4400 value=0x00000a12 count=6
R350_PROBE write reg=0x4440 value=0x00001fe8 count=6
R350_PROBE write reg=0x4480 value=0x8007f8ff count=6
R350_PROBE write reg=0x44c0 value=0x0000aa0c count=6
R350_PROBE write reg=0x45c0 value=0x00000000 count=6
R350_PROBE write reg=0x4580 value=0x00000000 count=6
R350_PROBE write reg=0x4500 value=0x000000ff count=6
R350_PROBE write reg=0x4104 value=0x00000001 count=8
R350_PROBE write reg=0x2208 value=0x00000000 count=256
R350_PROBE write reg=0x15e0 value=0x0000000e count=16
R350_PROBE write reg=0x15d4 value=0x00000002 count=7
R350_PROBE write reg=0x146c value=0x42cc36f3 count=6
R350_PROBE write reg=0x15ac value=0x1015c400 count=6
R350_PROBE write reg=0x15b0 value=0x00001000 count=6
R350_PROBE write reg=0x1404 value=0x00740000 count=6
R350_PROBE write reg=0x1408 value=0x00000400 count=6
R350_PROBE write reg=0x1704 value=0x00000000 count=6
R350_PROBE write reg=0x1700 value=0x00000000 count=6
R350_PROBE write reg=0x1434 value=0x00000000 count=6
R350_PROBE write reg=0x1438 value=0x00000000 count=6
R350_PROBE write reg=0x143c value=0x01000100 count=6
R350_PROBE write reg=0x4540 value=0x00740000 count=6
R350_PROBE unsupported_3d_draw count=6; R200 renderer deliberately not used
R350_PROBE write reg=0x4400 value=0x00000a12 count=7
R350_PROBE write reg=0x4440 value=0x00001fe8 count=7
R350_PROBE write reg=0x4480 value=0x8007f8ff count=7
R350_PROBE write reg=0x44c0 value=0x0000aa0c count=7
R350_PROBE write reg=0x45c0 value=0x00000000 count=7
R350_PROBE write reg=0x4580 value=0x00000000 count=7
R350_PROBE write reg=0x4500 value=0x000000ff count=7
R350_PROBE write reg=0x15d4 value=0x00000002 count=8
R350_PROBE write reg=0x146c value=0x42cc36f3 count=7
R350_PROBE write reg=0x15ac value=0x1015c800 count=7
R350_PROBE write reg=0x15b0 value=0x00001000 count=7
R350_PROBE write reg=0x1404 value=0x00780000 count=7
R350_PROBE write reg=0x1408 value=0x00000400 count=7
R350_PROBE write reg=0x1704 value=0x00000000 count=7
R350_PROBE write reg=0x1700 value=0x00000000 count=7
R350_PROBE write reg=0x1434 value=0x00000000 count=7
R350_PROBE write reg=0x1438 value=0x00000000 count=7
R350_PROBE write reg=0x143c value=0x01000100 count=7
R350_PROBE write reg=0x4100 value=0x00000000 count=16
R350_PROBE write reg=0x4540 value=0x00780000 count=7
R350_PROBE unsupported_3d_draw count=7; R200 renderer deliberately not used
R350_PROBE write reg=0x4400 value=0x00000a12 count=8
R350_PROBE write reg=0x4440 value=0x00001fe8 count=8
R350_PROBE write reg=0x4480 value=0x8007f8ff count=8
R350_PROBE write reg=0x44c0 value=0x0000aa0c count=8
R350_PROBE write reg=0x45c0 value=0x00000000 count=8
R350_PROBE write reg=0x4580 value=0x00000000 count=8
R350_PROBE write reg=0x4500 value=0x000000ff count=8
R350_PROBE write reg=0x146c value=0x42cc36f3 count=8
R350_PROBE write reg=0x15ac value=0x1015cc00 count=8
R350_PROBE write reg=0x15b0 value=0x00001000 count=8
R350_PROBE write reg=0x1404 value=0x007c0000 count=8
R350_PROBE write reg=0x1408 value=0x00000400 count=8
R350_PROBE write reg=0x1704 value=0x00000000 count=8
R350_PROBE write reg=0x1700 value=0x00000000 count=8
R350_PROBE write reg=0x1434 value=0x00000000 count=8
R350_PROBE write reg=0x1438 value=0x00000000 count=8
R350_PROBE write reg=0x143c value=0x01000100 count=8
R350_PROBE write reg=0x4540 value=0x007c0000 count=8
R350_PROBE unsupported_3d_draw count=8; R200 renderer deliberately not used
R350_PROBE write reg=0x2284 value=0x00000000 count=16
R350_PROBE write reg=0x0714 value=0x000003f0 count=128
R350_PROBE write reg=0x4e4c value=0x0000000a count=32
R350_PROBE write reg=0x0738 value=0x10012020 count=256
R350_PROBE write reg=0x073c value=0x00000008 count=256
R350_PROBE write reg=0x1720 value=0x00020000 count=32
R350_PROBE write reg=0x2200 value=0x00000280 count=16
R350_PROBE write reg=0x342c value=0x00000005 count=16
R350_PROBE write reg=0x4608 value=0x00002003 count=8
R350_PROBE write reg=0x48cc value=0x00050a80 count=1
R350_PROBE write reg=0x46cc value=0x1c020800 count=1
R350_PROBE write reg=0x49cc value=0x00040889 count=1
R350_PROBE write reg=0x47cc value=0x01020800 count=1
R350_PROBE write reg=0x4f14 value=0x00000000 count=4
R350_PROBE write reg=0x2180 value=0x00000000 count=6
R350_PROBE write reg=0x2184 value=0x00000005 count=4
R350_PROBE write reg=0x20b4 value=0x00000008 count=5
R350_PROBE write reg=0x2090 value=0x00000003 count=4
R350_PROBE write reg=0x2094 value=0x00000000 count=6
R350_PROBE write reg=0x4c00 value=0x003f0000 count=16
R350_PROBE write reg=0x4c04 value=0x003f0000 count=16
R350_PROBE write reg=0x4c08 value=0x003f0000 count=16
R350_PROBE write reg=0x4c0c value=0x003f0000 count=16
R350_PROBE write reg=0x4600 value=0x00000000 count=5
R350_PROBE write reg=0x4604 value=0x00000000 count=5
R350_PROBE write reg=0x46b4 value=0x00000001 count=5
R350_PROBE write reg=0x4610 value=0x00000000 count=5
R350_PROBE write reg=0x4614 value=0x00000000 count=5
R350_PROBE write reg=0x4618 value=0x00000000 count=5
R350_PROBE write reg=0x461c value=0x00400000 count=5
R350_PROBE write reg=0x4300 value=0x00040080 count=4
R350_PROBE write reg=0x4304 value=0x00000000 count=4
R350_PROBE write reg=0x4330 value=0x00004000 count=4
R350_PROBE write reg=0x4310 value=0x00d10000 count=4
R350_PROBE write reg=0x4314 value=0x00d10040 count=4
R350_PROBE write reg=0x4318 value=0x00d10080 count=4
R350_PROBE write reg=0x431c value=0x00d100c0 count=4
R350_PROBE write reg=0x4320 value=0x00d10000 count=4
R350_PROBE write reg=0x4324 value=0x00d10000 count=4
R350_PROBE write reg=0x4328 value=0x00d10000 count=4
R350_PROBE write reg=0x432c value=0x00d10000 count=4
R350_PROBE write reg=0x22d0 value=0x08420c80 count=4
R350_PROBE write reg=0x22d4 value=0x00040080 count=4
R350_PROBE write reg=0x22d8 value=0x00000084 count=4
R350_PROBE write reg=0x22dc value=0x00000000 count=4
R350_PROBE write reg=0x4f18 value=0x00000003 count=6
R350_PROBE write reg=0x0218 value=0x40000300 count=1
R350_PROBE write reg=0x4f18 value=0x00000003 count=7
R350_PROBE write reg=0x43a8 value=0x2da49525 count=2
R350_PROBE write reg=0x43e8 value=0x00ffffff count=7
R350_PROBE write reg=0x4018 value=0x00000017 count=7
R350_PROBE write reg=0x4010 value=0x66666666 count=8
R350_PROBE write reg=0x4014 value=0x06666666 count=8
R350_PROBE write reg=0x4020 value=0x00000000 count=8
R350_PROBE write reg=0x43a4 value=0x00000000 count=5
R350_PROBE write reg=0x4f1c value=0x00000000 count=5
R350_PROBE write reg=0x4f04 value=0x00000000 count=4
R350_PROBE write reg=0x2140 value=0x00000102 count=2
R350_PROBE write reg=0x221c value=0x0001c000 count=6
R350_PROBE write reg=0x20b0 value=0x00000000 count=4
R350_PROBE write reg=0x42b8 value=0x00000000 count=4
R350_PROBE write reg=0x4e50 value=0x00000002 count=4
R350_PROBE write reg=0x4e00 value=0x00000000 count=5
R350_PROBE write reg=0x4008 value=0x00010001 count=4
R350_PROBE write reg=0x2090 value=0x00000001 count=5
R350_PROBE write reg=0x2094 value=0x00000000 count=7
R350_PROBE write reg=0x20b4 value=0x00000003 count=6
R350_PROBE write reg=0x2150 value=0x26000001 count=2
R350_PROBE write reg=0x21e0 value=0xfb24fb08 count=2
R350_PROBE write reg=0x4f00 value=0x00000000 count=4
R350_PROBE write reg=0x4bc0 value=0x00000000 count=4
R350_PROBE write reg=0x4bd4 value=0x00000000 count=7
R350_PROBE write reg=0x4288 value=0x00000000 count=2
R350_PROBE write reg=0x4e04 value=0x00000000 count=4
R350_PROBE write reg=0x4278 value=0x00000055 count=4
R350_PROBE write reg=0x4104 value=0x00000001 count=16
R350_PROBE write reg=0x48c0 value=0x00050a80 count=2
R350_PROBE write reg=0x46c0 value=0x1c000000 count=2
R350_PROBE write reg=0x47c0 value=0x01000000 count=2
R350_PROBE write reg=0x49c0 value=0x00040889 count=2
R350_PROBE write reg=0x4620 value=0x00008000 count=2
R350_PROBE write reg=0x4600 value=0x00000008 count=6
R350_PROBE write reg=0x4604 value=0x00000001 count=6
R350_PROBE write reg=0x461c value=0x00400000 count=6
R350_PROBE write reg=0x46a4 value=0x00001b00 count=4
R350_PROBE write reg=0x46a8 value=0x0000000f count=4
R350_PROBE write reg=0x46ac value=0x0000000f count=4
R350_PROBE write reg=0x46b0 value=0x0000000f count=4
R350_PROBE write reg=0x4300 value=0x00000002 count=5
R350_PROBE write reg=0x4304 value=0x00000000 count=5
R350_PROBE write reg=0x4330 value=0x00000008 count=5
R350_PROBE write reg=0x4310 value=0x01610000 count=5
R350_PROBE write reg=0x4e28 value=0x00000000 count=5
R350_PROBE write reg=0x4e38 value=0x00d00400 count=5
R350_PROBE write reg=0x43d0 value=0x0000ffff count=5
R350_PROBE write reg=0x4e0c value=0x0000000f count=4
R350_PROBE write reg=0x4e18 value=0x00000000 count=2
R350_PROBE write reg=0x43e0 value=0x00000000 count=4
R350_PROBE write reg=0x43e4 value=0x0113e99f count=4
R350_PROBE write reg=0x4200 value=0x00000000 count=4
R350_PROBE write reg=0x4204 value=0x3f800000 count=4
R350_PROBE write reg=0x4208 value=0x3f800000 count=4
R350_PROBE write reg=0x420c value=0x00000000 count=4
R350_PROBE write reg=0x421c value=0x18001200 count=4
R350_PROBE read reg=0x0210 value=0x01d00000 count=3
R350_PROBE read reg=0x0210 value=0x02190000 count=4
R350_PROBE read reg=0x0210 value=0x02520000 count=5
R350_PROBE read reg=0x0210 value=0x02970000 count=6
R350_PROBE read reg=0x0210 value=0x02db0000 count=7
R350_PROBE read reg=0x0210 value=0x02e70000 count=8
R350_PROBE read reg=0x0210 value=0x01940000 count=16
R350_PROBE read reg=0x0210 value=0x01c00000 count=32
R350_PROBE write reg=0x4f18 value=0x00000003 count=8
R350_PROBE write reg=0x4018 value=0x00000017 count=8
R350_PROBE write reg=0x4e00 value=0x00000000 count=6
R350_PROBE write reg=0x4f1c value=0x00000000 count=6
R350_PROBE write reg=0x43a4 value=0x00000000 count=6
R350_PROBE write reg=0x16ec value=0x00000000 count=5
R350_PROBE write reg=0x16f0 value=0x03000400 count=5
R350_PROBE write reg=0x16e0 value=0x10000000 count=3
R350_PROBE write reg=0x4e28 value=0x00000000 count=6
R350_PROBE write reg=0x4e38 value=0x00d00400 count=6
R350_PROBE write reg=0x3428 value=0x00020100 count=2
R350_PROBE write reg=0x43e0 value=0x00b405a0 count=5
R350_PROBE write reg=0x43e4 value=0x011409a0 count=5
R350_PROBE write reg=0x15e0 value=0x0000001e count=32
R350_PROBE write reg=0x2140 value=0x00000102 count=3
R350_PROBE write reg=0x221c value=0x0001c000 count=7
R350_PROBE write reg=0x20b0 value=0x00000000 count=5
R350_PROBE write reg=0x4008 value=0x00000000 count=5
R350_PROBE write reg=0x2090 value=0x00000001 count=6
R350_PROBE write reg=0x2094 value=0x00000004 count=8
R350_PROBE write reg=0x20b4 value=0x00000003 count=7
R350_PROBE write reg=0x2150 value=0x26000001 count=3
R350_PROBE write reg=0x21e0 value=0xfb24fb08 count=3
R350_PROBE write reg=0x4288 value=0x00000000 count=3
R350_PROBE write reg=0x4e04 value=0x00000000 count=5
R350_PROBE write reg=0x4278 value=0x00000005 count=5
R350_PROBE write reg=0x4e0c value=0x0000000f count=5
R350_PROBE write reg=0x42b8 value=0x00000000 count=5
R350_PROBE write reg=0x43a8 value=0x2da49525 count=3
R350_PROBE write reg=0x43e8 value=0x00ffffff count=8
R350_PROBE write reg=0x43d0 value=0x0000ffff count=6
R350_PROBE write reg=0x4f00 value=0x00000000 count=5
R350_PROBE write reg=0x4f04 value=0x00000000 count=5
R350_PROBE write reg=0x4300 value=0x00000004 count=6
R350_PROBE write reg=0x4304 value=0x00000000 count=6
R350_PROBE write reg=0x4330 value=0x00000008 count=6
R350_PROBE write reg=0x4310 value=0x00d10000 count=6
R350_PROBE write reg=0x48c0 value=0x00050a80 count=3
R350_PROBE write reg=0x46c0 value=0x1c000020 count=3
R350_PROBE write reg=0x47c0 value=0x01000020 count=3
R350_PROBE write reg=0x49c0 value=0x00040889 count=3
R350_PROBE write reg=0x4600 value=0x00000000 count=7
R350_PROBE write reg=0x4604 value=0x00000001 count=7
R350_PROBE write reg=0x461c value=0x00400000 count=7
R350_PROBE write reg=0x46a4 value=0x00001b01 count=5
R350_PROBE write reg=0x46a8 value=0x0000000f count=5
R350_PROBE write reg=0x46ac value=0x0000000f count=5
R350_PROBE write reg=0x46b0 value=0x0000000f count=5
R350_PROBE write reg=0x4bc0 value=0x00000000 count=5
R350_PROBE write reg=0x4bd4 value=0x00000000 count=8
R350_PROBE write reg=0x4e50 value=0x80000000 count=5
R350_PROBE read reg=0x0e40 value=0x00000040 count=4096
R350_PROBE read reg=0x1720 value=0x00000000 count=4096
R350_PROBE write reg=0x0770 value=0x00000000 count=3
R350_PROBE read reg=0x0704 value=0x0002000a count=4
R350_PROBE write reg=0x0704 value=0x0802000a count=6
R350_PROBE write reg=0x0744 value=0x00000000 count=3
R350_PROBE read reg=0x0744 value=0x00000000 count=2
R350_PROBE read reg=0x0704 value=0x0802000a count=5
R350_PROBE write reg=0x0704 value=0x8802000a count=7
R350_PROBE write reg=0x071c value=0x00000000 count=2
R350_PROBE write reg=0x0704 value=0x0802000a count=8
R350_PROBE write reg=0x0508 value=0x00000000 count=4
R350_PROBE write reg=0x0506 value=0x00000020 count=3
R350_PROBE write reg=0x0502 value=0x00000690 count=2
R350_PROBE write reg=0x0504 value=0x0000041a count=4
R350_PROBE write reg=0x050a value=0x00000000 count=5
R350_PROBE write reg=0x050c value=0x00000690 count=3
R350_PROBE write reg=0x050e value=0x00000834 count=4
R350_PROBE write reg=0x0510 value=0x00000000 count=3
R350_PROBE write reg=0x0512 value=0x00000000 count=4
R350_PROBE write reg=0x0508 value=0x00000061 count=6
R350_PROBE write reg=0x0740 value=0x00000000 count=3
R350_PROBE write reg=0x0744 value=0x00000000 count=4
R350_PROBE write reg=0x0170 value=0x00000000 count=2
R350_PROBE write reg=0x015c value=0x00000000 count=2
R350_PROBE write reg=0x0148 value=0xffff0000 count=3
R350_PROBE read reg=0x00f8 value=0x07c00000 count=4
R350_PROBE write reg=0x023c value=0x00000000 count=2
R350_PROBE write reg=0x033c value=0x00000000 count=2
R350_PROBE write reg=0x0148 value=0x07bf0000 count=4
R350_PROBE read reg=0x00f8 value=0x07c00000 count=5
R350_PROBE write reg=0x014c value=0x17ff1000 count=2
R350_PROBE write reg=0x0ab0 value=0x03310000 count=2
R350_PROBE write reg=0x0ab4 value=0x00000000 count=2
R350_PROBE write reg=0x01dc value=0x07c00000 count=2
R350_PROBE write reg=0x01e0 value=0x0fbfffff count=2
R350_PROBE read reg=0x01d0 value=0x00000001 count=2
R350_PROBE write reg=0x01d0 value=0x00000001 count=2
R350_PROBE write reg=0x0700 value=0x10020000 count=2
R350_PROBE write reg=0x15e4 value=0x00000000 count=3
R350_PROBE write reg=0x15e8 value=0x00000000 count=2
R350_PROBE write reg=0x15ec value=0x00000000 count=2
R350_PROBE write reg=0x15f0 value=0x00000000 count=2
R350_PROBE write reg=0x15f4 value=0x00000000 count=2
R350_PROBE write reg=0x15f8 value=0x00000000 count=2
R350_PROBE write reg=0x15fc value=0x00000000 count=2
R350_PROBE write reg=0x1fa8 value=0x00000000 count=2
R350_PROBE write reg=0x0774 value=0x07c24000 count=2
R350_PROBE write reg=0x0770 value=0x000000ff count=4
R350_PROBE read reg=0x0b00 value=0x00200001 count=2
R350_PROBE write reg=0x0b00 value=0x00200001 count=3
R350_PROBE read reg=0x0030 value=0x00000000 count=2
R350_PROBE write reg=0x0030 value=0x00000000 count=2
R350_PROBE read reg=0x1724 value=0x00000003 count=2
R350_PROBE write reg=0x1724 value=0x00000003 count=2
R350_PROBE read reg=0x1710 value=0x00000000 count=2
R350_PROBE write reg=0x1710 value=0x00020000 count=2
R350_PROBE read reg=0x0704 value=0x0802000a count=6
R350_PROBE read reg=0x0f5c value=0x1f000203 count=2
R350_PROBE write reg=0x07d4 value=0x00000000 count=2
R350_PROBE write reg=0x07dc value=0x00000000 count=512
R350_PROBE write reg=0x07e0 value=0x00000000 count=512
R350_PROBE write reg=0x0718 value=0x00000023 count=2
R350_PROBE read reg=0x0710 value=0x00000000 count=2
R350_PROBE write reg=0x070c value=0x07c00000 count=2
R350_PROBE write reg=0x0740 value=0x40000000 count=4
R350_PROBE read reg=0x00f8 value=0x07c00000 count=6
R350_PROBE read reg=0x0224 value=0x00000000 count=2
R350_PROBE read reg=0x16c4 value=0x00000006 count=2
R350_PROBE read reg=0x0050 value=0x03000600 count=2
R350_PROBE write reg=0x15d0 value=0x00000002 count=2
R350_PROBE write reg=0x16c4 value=0x00000006 count=2
R350_PROBE read reg=0x0228 value=0x00000000 count=3
R350_PROBE write reg=0x0b00 value=0x00200001 count=4
R350_PROBE write reg=0x16e0 value=0x5b000000 count=4
R350_PROBE read reg=0x0228 value=0x00000000 count=4
R350_PROBE read reg=0x0328 value=0x00000000 count=2
R350_PROBE write reg=0x15e4 value=0x00000001 count=4
R350_PROBE write reg=0x16e8 value=0x1fff1fff count=2
R350_PROBE write reg=0x16cc value=0xffffffff count=2
R350_PROBE write reg=0x2080 value=0x00240455 count=4
R350_PROBE write reg=0x43b0 value=0x00000000 count=5
R350_PROBE write reg=0x43b4 value=0x03ffffff count=5
R350_PROBE write reg=0x43b8 value=0x00000000 count=2
R350_PROBE write reg=0x43bc value=0x03ffffff count=2
R350_PROBE write reg=0x43c0 value=0x00000000 count=2
R350_PROBE write reg=0x43c4 value=0x03ffffff count=2
R350_PROBE write reg=0x43c8 value=0x00000000 count=2
R350_PROBE write reg=0x43cc value=0x03ffffff count=2
R350_PROBE write reg=0x43d0 value=0x0000ffff count=7
R350_PROBE write reg=0x4e00 value=0x00000000 count=7
R350_PROBE write reg=0x4f1c value=0x00000000 count=7
R350_PROBE write reg=0x43a4 value=0x00000000 count=7
R350_PROBE write reg=0x16ec value=0x00000000 count=6
R350_PROBE write reg=0x16f0 value=0x041a0690 count=6
R350_PROBE write reg=0x16e0 value=0x1b000000 count=5
R350_PROBE write reg=0x4e28 value=0x00000000 count=7
R350_PROBE write reg=0x4e38 value=0x00d006c0 count=7
R350_PROBE write reg=0x3428 value=0x00020100 count=3
R350_PROBE write reg=0x43e0 value=0x00b405a0 count=6
R350_PROBE write reg=0x43e4 value=0x01374c30 count=6
R350_PROBE write reg=0x4e00 value=0x00000000 count=8
R350_PROBE write reg=0x4f1c value=0x00000000 count=8
R350_PROBE write reg=0x43a4 value=0x00000000 count=8
R350_PROBE write reg=0x16ec value=0x00000000 count=7
R350_PROBE write reg=0x16f0 value=0x041a0690 count=7
R350_PROBE write reg=0x16e0 value=0x1b000000 count=6
R350_PROBE write reg=0x4e28 value=0x00000000 count=8
R350_PROBE write reg=0x4e38 value=0x00d006c0 count=8
R350_PROBE write reg=0x3428 value=0x00020100 count=4
R350_PROBE write reg=0x43e0 value=0x00b405a0 count=7
R350_PROBE write reg=0x43e4 value=0x01374c30 count=7
R350_PROBE write reg=0x4290 value=0x00000000 count=2
R350_PROBE write reg=0x4e50 value=0x00000005 count=6
R350_PROBE write reg=0x2140 value=0x00000002 count=4
R350_PROBE write reg=0x42b4 value=0x00000000 count=2
R350_PROBE write reg=0x42b8 value=0x00000000 count=6
R350_PROBE write reg=0x4288 value=0x00000000 count=4
R350_PROBE write reg=0x428c value=0x00000001 count=2
R350_PROBE write reg=0x4234 value=0x00020006 count=4
R350_PROBE write reg=0x4008 value=0x00000007 count=6
R350_PROBE write reg=0x4214 value=0x00050005 count=2
R350_PROBE write reg=0x4238 value=0x00000000 count=4
R350_PROBE write reg=0x4260 value=0x00000000 count=2
R350_PROBE write reg=0x4264 value=0x00000000 count=2
R350_PROBE write reg=0x4268 value=0x3f800000 count=4
R350_PROBE write reg=0x401c value=0x00000000 count=5
R350_PROBE write reg=0x4e88 value=0x00000000 count=2
R350_PROBE write reg=0x4274 value=0x00000002 count=2
R350_PROBE write reg=0x42a0 value=0x00000000 count=2
R350_PROBE write reg=0x46a4 value=0x00001b00 count=6
R350_PROBE write reg=0x46a8 value=0x0000000f count=6
R350_PROBE write reg=0x46ac value=0x0000000f count=6
R350_PROBE write reg=0x46b0 value=0x0000000f count=6
R350_PROBE write reg=0x4e14 value=0x00000000 count=5
R350_PROBE write reg=0x4294 value=0x00000000 count=4
R350_PROBE write reg=0x4298 value=0x00000000 count=4
R350_PROBE write reg=0x4278 value=0x0003aaaa count=6
R350_PROBE write reg=0x2184 value=0x00000005 count=5
R350_PROBE write reg=0x2090 value=0x00000003 count=7
R350_PROBE write reg=0x20b0 value=0x0000043f count=6
R350_PROBE write reg=0x20b4 value=0x0000000c count=8
R350_PROBE write reg=0x2180 value=0x00000000 count=7
R350_PROBE write reg=0x221c value=0x00000000 count=8
R350_PROBE write reg=0x2288 value=0x0000ffff count=2
R350_PROBE write reg=0x21dc value=0xaaaaaaaa count=2
R350_PROBE write reg=0x2134 value=0x00ffffff count=2
R350_PROBE write reg=0x2138 value=0x00000000 count=2
R350_PROBE write reg=0x43a8 value=0x2da49525 count=4
R350_PROBE write reg=0x2150 value=0x00000000 count=4
R350_PROBE write reg=0x21e0 value=0x00000000 count=4
R350_PROBE write reg=0x1d98 value=0x44000000 count=4
R350_PROBE write reg=0x1d9c value=0x44000000 count=4
R350_PROBE write reg=0x1da0 value=0xc3c00000 count=4
R350_PROBE write reg=0x1da4 value=0x43c00000 count=4
R350_PROBE write reg=0x1da8 value=0x3f000000 count=4
R350_PROBE write reg=0x1dac value=0x3f000000 count=4
R350_PROBE write reg=0x2220 value=0x3f800000 count=4
R350_PROBE write reg=0x2224 value=0x3f800000 count=4
R350_PROBE write reg=0x2228 value=0x3f800000 count=4
R350_PROBE write reg=0x222c value=0x3f800000 count=4
R350_PROBE write reg=0x4230 value=0x01800006 count=4
R350_PROBE write reg=0x421c value=0x00060006 count=5
R350_PROBE write reg=0x4200 value=0x00000000 count=5
R350_PROBE write reg=0x4204 value=0x00000000 count=5
R350_PROBE write reg=0x4208 value=0x3f800000 count=5
R350_PROBE write reg=0x420c value=0x3f800000 count=5
R350_PROBE write reg=0x4e18 value=0x00000000 count=3
R350_PROBE write reg=0x4e0c value=0x0000000f count=6
R350_PROBE write reg=0x43e0 value=0x00b405a0 count=8
R350_PROBE write reg=0x43e4 value=0x0113e99f count=8
R350_PROBE write reg=0x4bd8 value=0x00000000 count=2
R350_PROBE write reg=0x4bc8 value=0x00000000 count=4
R350_PROBE write reg=0x4bcc value=0x00000000 count=4
R350_PROBE write reg=0x4bd0 value=0x00000000 count=4
R350_PROBE write reg=0x401c value=0x00000000 count=6
R350_PROBE write reg=0x4bc0 value=0x00000000 count=6
R350_PROBE write reg=0x427c value=0x00000000 count=2
R350_PROBE write reg=0x4280 value=0x00000000 count=2
R350_PROBE write reg=0x4e04 value=0x20220000 count=6
R350_PROBE write reg=0x4e08 value=0x00000000 count=4
R350_PROBE write reg=0x4e10 value=0x00000000 count=4
R350_PROBE write reg=0x4f14 value=0x00000000 count=5
R350_PROBE write reg=0x4f00 value=0x00000010 count=6
R350_PROBE write reg=0x4f04 value=0x00000000 count=6
R350_PROBE write reg=0x42c0 value=0x4b7fffff count=4
R350_PROBE write reg=0x42c4 value=0x00000000 count=4
R350_PROBE write reg=0x4c10 value=0x00000000 count=2
R350_PROBE write reg=0x4c14 value=0x00000000 count=2
R350_PROBE write reg=0x4c18 value=0x00000000 count=2
R350_PROBE write reg=0x4c1c value=0x00000000 count=2
R350_PROBE write reg=0x4c20 value=0x00000000 count=2
R350_PROBE write reg=0x4c24 value=0x00000000 count=2
R350_PROBE write reg=0x4c28 value=0x00000000 count=2
R350_PROBE write reg=0x4c2c value=0x00000000 count=2
R350_PROBE write reg=0x4c30 value=0x00000000 count=2
R350_PROBE write reg=0x4c34 value=0x00000000 count=2
R350_PROBE write reg=0x4c38 value=0x00000000 count=2
R350_PROBE write reg=0x4c3c value=0x00000000 count=2
R350_PROBE write reg=0x4c40 value=0x00000000 count=2
R350_PROBE write reg=0x4c44 value=0x00000000 count=2
R350_PROBE write reg=0x4c48 value=0x00000000 count=2
R350_PROBE write reg=0x4c4c value=0x00000000 count=2
R350_PROBE write reg=0x4c50 value=0x00000000 count=2
R350_PROBE write reg=0x4c54 value=0x00000000 count=2
R350_PROBE write reg=0x4c58 value=0x00000000 count=2
R350_PROBE write reg=0x4c5c value=0x00000000 count=2
R350_PROBE write reg=0x4c60 value=0x00000000 count=2
R350_PROBE write reg=0x4c64 value=0x00000000 count=2
R350_PROBE write reg=0x4c68 value=0x00000000 count=2
R350_PROBE write reg=0x4c6c value=0x00000000 count=2
R350_PROBE write reg=0x4c70 value=0x00000000 count=2
R350_PROBE write reg=0x4c74 value=0x00000000 count=2
R350_PROBE write reg=0x4c78 value=0x00000000 count=2
R350_PROBE write reg=0x4c7c value=0x00000000 count=2
R350_PROBE write reg=0x4600 value=0x00000000 count=8
R350_PROBE write reg=0x4604 value=0x00000000 count=8
R350_PROBE write reg=0x46b4 value=0x00000001 count=6
R350_PROBE write reg=0x4610 value=0x00000000 count=6
R350_PROBE write reg=0x4614 value=0x00000000 count=6
R350_PROBE write reg=0x4618 value=0x00000000 count=6
R350_PROBE write reg=0x461c value=0x00400000 count=8
R350_PROBE write reg=0x4300 value=0x00040080 count=7
R350_PROBE write reg=0x4304 value=0x00000000 count=7
R350_PROBE write reg=0x4330 value=0x00004000 count=7
R350_PROBE write reg=0x4310 value=0x00d10000 count=7
R350_PROBE write reg=0x4314 value=0x00d10040 count=5
R350_PROBE write reg=0x4318 value=0x00d10080 count=5
R350_PROBE write reg=0x431c value=0x00d100c0 count=5
R350_PROBE write reg=0x4320 value=0x00d10000 count=5
R350_PROBE write reg=0x4324 value=0x00d10000 count=5
R350_PROBE write reg=0x4328 value=0x00d10000 count=5
R350_PROBE write reg=0x432c value=0x00d10000 count=5
R350_PROBE write reg=0x48c0 value=0x00050a80 count=4
R350_PROBE write reg=0x48c4 value=0x00050a80 count=2
R350_PROBE write reg=0x48c8 value=0x40050200 count=2
R350_PROBE write reg=0x48cc value=0x00050a80 count=2
R350_PROBE write reg=0x46c0 value=0x1c020800 count=4
R350_PROBE write reg=0x46c4 value=0x1c020800 count=2
R350_PROBE write reg=0x46c8 value=0x1c020040 count=2
R350_PROBE write reg=0x46cc value=0x1c020800 count=2
R350_PROBE write reg=0x49c0 value=0x00040889 count=4
R350_PROBE write reg=0x49c4 value=0x00040889 count=2
R350_PROBE write reg=0x49c8 value=0x40040509 count=2
R350_PROBE write reg=0x49cc value=0x00040889 count=2
R350_PROBE write reg=0x47c0 value=0x01020800 count=4
R350_PROBE write reg=0x47c4 value=0x01020800 count=2
R350_PROBE write reg=0x47c8 value=0x01020800 count=2
R350_PROBE write reg=0x47cc value=0x01020800 count=2
R350_PROBE write reg=0x4620 value=0x00018041 count=3
R350_PROBE write reg=0x2208 value=0x00d10005 count=512
R350_PROBE write reg=0x22d0 value=0x08420c80 count=5
R350_PROBE write reg=0x22d4 value=0x00040080 count=5
R350_PROBE write reg=0x22d8 value=0x00000084 count=5
R350_PROBE write reg=0x22dc value=0x00000000 count=5
R350_PROBE write reg=0x2080 value=0x0030045a count=5
R350_PROBE write reg=0x142c value=0x5b001bd8 count=16
R350_PROBE write reg=0x4e2c value=0x00000000 count=4
R350_PROBE write reg=0x4e30 value=0x00000000 count=4
R350_PROBE write reg=0x4e34 value=0x00000000 count=4
R350_PROBE write reg=0x4e3c value=0x00000000 count=4
R350_PROBE write reg=0x4e40 value=0x00000000 count=4
R350_PROBE write reg=0x4e44 value=0x00000000 count=4
R350_PROBE write reg=0x4e14 value=0x00000000 count=6
R350_PROBE write reg=0x4e54 value=0x00000001 count=4
R350_PROBE write reg=0x4e64 value=0x000006c0 count=4
R350_PROBE write reg=0x4f20 value=0x00000000 count=4
R350_PROBE write reg=0x4f24 value=0x00000000 count=4
R350_PROBE write reg=0x4f60 value=0x00000000 count=4
R350_PROBE write reg=0x4f10 value=0x00000000 count=4
R350_PROBE write reg=0x4f28 value=0x00000000 count=4
R350_PROBE write reg=0x4f30 value=0x00000000 count=4
R350_PROBE write reg=0x4f34 value=0x00000000 count=4
R350_PROBE write reg=0x4f44 value=0x00000000 count=4
R350_PROBE write reg=0x4f54 value=0x00000000 count=4
R350_PROBE write reg=0x43b0 value=0x00b405a0 count=6
R350_PROBE write reg=0x43b4 value=0x01374c30 count=6
R350_PROBE write reg=0x43d0 value=0x0000aaaa count=8
R350_PROBE write reg=0x16ec value=0x00000000 count=8
R350_PROBE write reg=0x16f0 value=0x041a0690 count=8
R350_PROBE write reg=0x20c8 value=0x00000000 count=2
R350_PROBE write reg=0x20cc value=0x00000000 count=2
R350_PROBE write reg=0x20d4 value=0x00000000 count=2
R350_PROBE write reg=0x20d8 value=0x00000000 count=2
R350_PROBE write reg=0x20e0 value=0x00000000 count=2
R350_PROBE write reg=0x20e4 value=0x00000000 count=2
R350_PROBE write reg=0x20ec value=0x00000000 count=2
R350_PROBE write reg=0x20f0 value=0x00000000 count=2
R350_PROBE write reg=0x20f8 value=0x00000000 count=2
R350_PROBE write reg=0x20fc value=0x00000000 count=2
R350_PROBE write reg=0x2104 value=0x00000000 count=2
R350_PROBE write reg=0x2108 value=0x00000000 count=2
R350_PROBE write reg=0x2110 value=0x00000000 count=2
R350_PROBE write reg=0x2114 value=0x00000000 count=2
R350_PROBE write reg=0x211c value=0x00000000 count=2
R350_PROBE write reg=0x2120 value=0x00000000 count=2
R350_PROBE write reg=0x20b0 value=0x0000043f count=7
R350_PROBE write reg=0x2180 value=0x00000000 count=8
R350_PROBE write reg=0x4bc8 value=0x00000000 count=5
R350_PROBE write reg=0x4bcc value=0x00000000 count=5
R350_PROBE write reg=0x4bd0 value=0x00000000 count=5
R350_PROBE write reg=0x4bc0 value=0x00000000 count=7
R350_PROBE write reg=0x4294 value=0x00000000 count=5
R350_PROBE write reg=0x4298 value=0x00000000 count=5
R350_PROBE write reg=0x401c value=0x00000000 count=7
R350_PROBE write reg=0x4e04 value=0x20220000 count=7
R350_PROBE write reg=0x4e08 value=0x00000000 count=5
R350_PROBE write reg=0x4e10 value=0x00000000 count=5
R350_PROBE write reg=0x4e50 value=0x00000005 count=7
R350_PROBE write reg=0x4f00 value=0x00000010 count=7
R350_PROBE write reg=0x4f04 value=0x00000000 count=7
R350_PROBE write reg=0x4f08 value=0x00ffff00 count=3
R350_PROBE write reg=0x421c value=0x00060006 count=6
R350_PROBE write reg=0x4200 value=0x00000000 count=6
R350_PROBE write reg=0x4204 value=0x00000000 count=6
R350_PROBE write reg=0x4208 value=0x3f800000 count=6
R350_PROBE write reg=0x420c value=0x3f800000 count=6
R350_PROBE write reg=0x4230 value=0x01800006 count=5
R350_PROBE write reg=0x4234 value=0x00020006 count=5
R350_PROBE write reg=0x4238 value=0x00000000 count=5
R350_PROBE write reg=0x4268 value=0x3f800000 count=5
R350_PROBE write reg=0x4e0c value=0x0000000f count=7
R350_PROBE write reg=0x4278 value=0x0003aaaa count=7
R350_PROBE write reg=0x46a4 value=0x00001b00 count=7
R350_PROBE write reg=0x46a8 value=0x0000000f count=7
R350_PROBE write reg=0x46ac value=0x0000000f count=7
R350_PROBE write reg=0x46b0 value=0x0000000f count=7
R350_PROBE write reg=0x42c4 value=0x00000000 count=5
R350_PROBE write reg=0x42c0 value=0x4b7fffff count=5
R350_PROBE write reg=0x42b8 value=0x00000000 count=7
R350_PROBE write reg=0x1d98 value=0x44000000 count=5
R350_PROBE write reg=0x1d9c value=0x44000000 count=5
R350_PROBE write reg=0x1da0 value=0xc3c00000 count=5
R350_PROBE write reg=0x1da4 value=0x44268000 count=5
R350_PROBE write reg=0x1da8 value=0x3f000000 count=5
R350_PROBE write reg=0x1dac value=0x3f000000 count=5
R350_PROBE write reg=0x2220 value=0x3f800000 count=5
R350_PROBE write reg=0x2224 value=0x3f800000 count=5
R350_PROBE write reg=0x2228 value=0x3f800000 count=5
R350_PROBE write reg=0x222c value=0x3f800000 count=5
R350_PROBE write reg=0x4008 value=0x00000007 count=7
R350_PROBE write reg=0x4e2c value=0x00000000 count=5
R350_PROBE write reg=0x4e30 value=0x00000000 count=5
R350_PROBE write reg=0x4e34 value=0x00000000 count=5
R350_PROBE write reg=0x4e3c value=0x00000000 count=5
R350_PROBE write reg=0x4e40 value=0x00000000 count=5
R350_PROBE write reg=0x4e44 value=0x00000000 count=5
R350_PROBE write reg=0x4e14 value=0x00000000 count=7
R350_PROBE write reg=0x4e54 value=0x00000001 count=5
R350_PROBE write reg=0x4e64 value=0x000006c0 count=5
R350_PROBE write reg=0x4f20 value=0x00000000 count=5
R350_PROBE write reg=0x4f24 value=0x00000000 count=5
R350_PROBE write reg=0x4f60 value=0x00000000 count=5
R350_PROBE write reg=0x4f10 value=0x00000000 count=5
R350_PROBE write reg=0x4f28 value=0x00000000 count=5
R350_PROBE write reg=0x4f30 value=0x00000000 count=5
R350_PROBE write reg=0x4f34 value=0x00000000 count=5
R350_PROBE write reg=0x4f44 value=0x00000000 count=5
R350_PROBE write reg=0x4f54 value=0x00000000 count=5
R350_PROBE write reg=0x43b0 value=0x00b405a0 count=7
R350_PROBE write reg=0x43b4 value=0x01374c30 count=7
R350_PROBE write reg=0x20b0 value=0x0000043f count=8
R350_PROBE write reg=0x4100 value=0x00000000 count=32
R350_PROBE write reg=0x48d0 value=0x40050200 count=1
R350_PROBE write reg=0x46d0 value=0x1c020040 count=1
R350_PROBE write reg=0x49d0 value=0x40040509 count=1
R350_PROBE write reg=0x47d0 value=0x01020800 count=1
R350_PROBE write reg=0x4624 value=0x00018041 count=1
R350_PROBE write reg=0x4e04 value=0x20220000 count=8
R350_PROBE write reg=0x4e08 value=0x00000000 count=6
R350_PROBE write reg=0x4e10 value=0x00000000 count=6
R350_PROBE write reg=0x4e50 value=0x00000005 count=8
R350_PROBE write reg=0x4f14 value=0x00000001 count=6
R350_PROBE write reg=0x4f00 value=0x00000010 count=8
R350_PROBE write reg=0x4f04 value=0x00000000 count=8
R350_PROBE write reg=0x4234 value=0x00020006 count=6
R350_PROBE write reg=0x4238 value=0x00000000 count=6
R350_PROBE write reg=0x4268 value=0x3f800000 count=6
R350_PROBE write reg=0x4e0c value=0x0000000f count=8
R350_PROBE write reg=0x4278 value=0x0003aaaa count=8
R350_PROBE write reg=0x46a4 value=0x00001b00 count=8
R350_PROBE write reg=0x46a8 value=0x0000000f count=8
R350_PROBE write reg=0x46ac value=0x0000000f count=8
R350_PROBE write reg=0x46b0 value=0x0000000f count=8
R350_PROBE write reg=0x42c4 value=0x00000000 count=6
R350_PROBE write reg=0x42c0 value=0x4b7fffff count=6
R350_PROBE write reg=0x42b8 value=0x00000000 count=8
R350_PROBE write reg=0x4010 value=0x66666666 count=16
R350_PROBE write reg=0x4014 value=0x06666666 count=16
R350_PROBE write reg=0x1d98 value=0x44520000 count=6
R350_PROBE write reg=0x1d9c value=0x44520000 count=6
R350_PROBE write reg=0x1da0 value=0xc4034000 count=6
R350_PROBE write reg=0x1da4 value=0x44034000 count=6
R350_PROBE write reg=0x1da8 value=0x3f000000 count=6
R350_PROBE write reg=0x1dac value=0x3f000000 count=6
R350_PROBE write reg=0x2220 value=0x3f800000 count=6
R350_PROBE write reg=0x2224 value=0x3f800000 count=6
R350_PROBE write reg=0x2228 value=0x3f800000 count=6
R350_PROBE write reg=0x222c value=0x3f800000 count=6
R350_PROBE write reg=0x2184 value=0x00000405 count=6
R350_PROBE write reg=0x2090 value=0x00000003 count=8
R350_PROBE write reg=0x46b4 value=0x00000001 count=7
R350_PROBE write reg=0x4610 value=0x00000000 count=7
R350_PROBE write reg=0x4614 value=0x00000000 count=7
R350_PROBE write reg=0x4618 value=0x00000000 count=7
R350_PROBE write reg=0x4300 value=0x00040084 count=8
R350_PROBE write reg=0x4304 value=0x00000000 count=8
R350_PROBE write reg=0x4330 value=0x00004048 count=8
R350_PROBE write reg=0x4310 value=0x00d10000 count=8
R350_PROBE write reg=0x4314 value=0x00d10044 count=6
R350_PROBE write reg=0x4318 value=0x00d10084 count=6
R350_PROBE write reg=0x431c value=0x00d100c4 count=6
R350_PROBE write reg=0x4320 value=0x00d10004 count=6
R350_PROBE write reg=0x4324 value=0x00d10004 count=6
R350_PROBE write reg=0x4328 value=0x00d10004 count=6
R350_PROBE write reg=0x432c value=0x00d10004 count=6
R350_PROBE write reg=0x22d0 value=0x08820c80 count=6
R350_PROBE write reg=0x22d4 value=0x00080080 count=6
R350_PROBE write reg=0x22d8 value=0x00000088 count=6
R350_PROBE write reg=0x22dc value=0x00000000 count=6
R350_PROBE write reg=0x4e2c value=0x00000000 count=6
R350_PROBE write reg=0x4e30 value=0x00000000 count=6
R350_PROBE write reg=0x4e34 value=0x00000000 count=6
R350_PROBE write reg=0x4e3c value=0x00000000 count=6
R350_PROBE write reg=0x4e40 value=0x00000000 count=6
R350_PROBE write reg=0x4e44 value=0x00000000 count=6
R350_PROBE write reg=0x4e14 value=0x00000000 count=8
R350_PROBE write reg=0x4e54 value=0x00000001 count=6
R350_PROBE write reg=0x4e64 value=0x000006c0 count=6
R350_PROBE write reg=0x4f20 value=0x00000000 count=6
R350_PROBE write reg=0x4f24 value=0x00000000 count=6
R350_PROBE write reg=0x4f60 value=0x00000000 count=6
R350_PROBE write reg=0x4f10 value=0x00000000 count=6
R350_PROBE write reg=0x4f28 value=0x00000000 count=6
R350_PROBE write reg=0x4f30 value=0x00000000 count=6
R350_PROBE write reg=0x4f34 value=0x00000000 count=6
R350_PROBE write reg=0x4f44 value=0x00000000 count=6
R350_PROBE write reg=0x4f54 value=0x00000000 count=6
R350_PROBE write reg=0x43b0 value=0x00b405a0 count=8
R350_PROBE write reg=0x43b4 value=0x01374c30 count=8
R350_PROBE write reg=0x2150 value=0x01030003 count=5
R350_PROBE write reg=0x2154 value=0x00002203 count=2
R350_PROBE write reg=0x21e0 value=0xf688f688 count=5
R350_PROBE write reg=0x21e4 value=0x0000f688 count=2
R350_PROBE write reg=0x15d4 value=0x00000002 count=16
R350_PROBE unsupported_3d_draw count=16; R200 renderer deliberately not used
R350_PROBE write reg=0x4400 value=0x00000a12 count=16
R350_PROBE write reg=0x4440 value=0x00001fe8 count=16
R350_PROBE write reg=0x4480 value=0x8007f8ff count=16
R350_PROBE write reg=0x44c0 value=0x0000aa0c count=16
R350_PROBE write reg=0x4500 value=0x000000ff count=16
R350_PROBE write reg=0x4540 value=0x00e6c000 count=16
R350_PROBE write reg=0x45c0 value=0x00000000 count=16
R350_PROBE write reg=0x4580 value=0x00000000 count=16
R350_PROBE write reg=0x2284 value=0x00000000 count=32
R350_PROBE write reg=0x4e4c value=0x00000000 count=64
R350_PROBE write reg=0x0714 value=0x000001e0 count=256
R350_PROBE write reg=0x146c value=0x42cc36f3 count=16
R350_PROBE write reg=0x15ac value=0x1037b000 count=16
R350_PROBE write reg=0x15b0 value=0x00001c00 count=16
R350_PROBE write reg=0x1404 value=0x00eac000 count=16
R350_PROBE write reg=0x1408 value=0x00000400 count=16
R350_PROBE write reg=0x1704 value=0x00000000 count=16
R350_PROBE write reg=0x1700 value=0x00000000 count=16
R350_PROBE write reg=0x1434 value=0x00000000 count=16
R350_PROBE write reg=0x1438 value=0x00000000 count=16
R350_PROBE write reg=0x143c value=0x01000100 count=16
R350_PROBE write reg=0x1720 value=0x00010000 count=64
R350_PROBE write reg=0x2200 value=0x00000280 count=32
R350_PROBE write reg=0x0738 value=0x10000020 count=512
R350_PROBE write reg=0x073c value=0x00000008 count=512
R350_PROBE write reg=0x342c value=0x00000005 count=32
R350_PROBE write reg=0x4c00 value=0x003f0000 count=32
R350_PROBE write reg=0x4c04 value=0x003f0000 count=32
R350_PROBE write reg=0x4c08 value=0x003f0000 count=32
R350_PROBE write reg=0x4c0c value=0x003f0000 count=32
R350_PROBE write reg=0x4104 value=0x00000001 count=32
R350_PROBE write reg=0x142c value=0x5b001bd8 count=32
R350_PROBE write reg=0x15e0 value=0x0000003c count=64
R350_PROBE write reg=0x2208 value=0xbf800000 count=1024
R350_PROBE write reg=0x4100 value=0x00000000 count=64
R350_PROBE write reg=0x15d4 value=0x00000002 count=32
R350_PROBE unsupported_3d_draw count=32; R200 renderer deliberately not used
R350_PROBE write reg=0x4400 value=0x00000a12 count=32
R350_PROBE write reg=0x4440 value=0x00001fe8 count=32
R350_PROBE write reg=0x4480 value=0x8007f8ff count=32
R350_PROBE write reg=0x44c0 value=0x0000aa0c count=32
R350_PROBE write reg=0x4500 value=0x000000ff count=32
R350_PROBE write reg=0x4540 value=0x0126c000 count=32
R350_PROBE write reg=0x45c0 value=0x00000000 count=32
R350_PROBE write reg=0x4580 value=0x00000000 count=32
R350_PROBE write reg=0x146c value=0x42cc36f3 count=32
R350_PROBE write reg=0x15ac value=0x108bac00 count=32
R350_PROBE write reg=0x15b0 value=0x00001c00 count=32
R350_PROBE write reg=0x1404 value=0x012ac000 count=32
R350_PROBE write reg=0x1408 value=0x00000400 count=32
R350_PROBE write reg=0x1704 value=0x00000000 count=32
R350_PROBE write reg=0x1700 value=0x00000000 count=32
R350_PROBE write reg=0x1434 value=0x00000000 count=32
R350_PROBE write reg=0x1438 value=0x00000000 count=32
R350_PROBE write reg=0x143c value=0x01000100 count=32
R350_PROBE write reg=0x4f14 value=0x00000000 count=7
R350_PROBE write reg=0x2184 value=0x00000005 count=7
R350_PROBE write reg=0x46b4 value=0x00000001 count=8
R350_PROBE write reg=0x4610 value=0x00000000 count=8
R350_PROBE write reg=0x4614 value=0x00000000 count=8
R350_PROBE write reg=0x4618 value=0x00000000 count=8
R350_PROBE write reg=0x4314 value=0x00d10040 count=7
R350_PROBE write reg=0x4318 value=0x00d10080 count=7
R350_PROBE write reg=0x431c value=0x00d100c0 count=7
R350_PROBE write reg=0x4320 value=0x00d10000 count=7
R350_PROBE write reg=0x4324 value=0x00d10000 count=7
R350_PROBE write reg=0x4328 value=0x00d10000 count=7
R350_PROBE write reg=0x432c value=0x00d10000 count=7
R350_PROBE write reg=0x22d0 value=0x08420c80 count=7
R350_PROBE write reg=0x22d4 value=0x00040080 count=7
R350_PROBE write reg=0x22d8 value=0x00000084 count=7
R350_PROBE write reg=0x22dc value=0x00000000 count=7
R350_PROBE write reg=0x0218 value=0x4000041a count=2
R350_PROBE write reg=0x4f18 value=0x00000003 count=16
R350_PROBE write reg=0x43a8 value=0x2da49525 count=5
R350_PROBE write reg=0x4020 value=0x00000000 count=16
R350_PROBE write reg=0x2140 value=0x00000102 count=5
R350_PROBE write reg=0x4008 value=0x00010001 count=8
R350_PROBE write reg=0x2150 value=0x26000001 count=6
R350_PROBE write reg=0x21e0 value=0xfb24fb08 count=6
R350_PROBE write reg=0x4bc0 value=0x00000000 count=8
R350_PROBE write reg=0x4288 value=0x00000000 count=5
R350_PROBE write reg=0x48c0 value=0x00050a80 count=5
R350_PROBE write reg=0x46c0 value=0x1c000000 count=5
R350_PROBE write reg=0x47c0 value=0x01000000 count=5
R350_PROBE write reg=0x49c0 value=0x00040889 count=5
R350_PROBE write reg=0x4620 value=0x00008000 count=4
R350_PROBE write reg=0x4608 value=0x00040040 count=16
R350_PROBE write reg=0x4e18 value=0x00000000 count=4
R350_PROBE write reg=0x4200 value=0x3f1c09c1 count=7
R350_PROBE write reg=0x4204 value=0x3f3b3ee7 count=7
R350_PROBE write reg=0x4208 value=0x3f800000 count=7
R350_PROBE write reg=0x420c value=0x00000000 count=7
R350_PROBE write reg=0x421c value=0x0f601200 count=7
R350_PROBE write reg=0x4200 value=0x00000000 count=8
R350_PROBE write reg=0x4204 value=0x3f800000 count=8
R350_PROBE write reg=0x4208 value=0x3f800000 count=8
R350_PROBE write reg=0x420c value=0x3f3b3ee7 count=8
R350_PROBE write reg=0x421c value=0x2760069c count=8
R350_PROBE write reg=0x16e0 value=0x1b000000 count=7
R350_PROBE write reg=0x3428 value=0x00020100 count=5
R350_PROBE write reg=0x2140 value=0x00000102 count=6
R350_PROBE write reg=0x2150 value=0x26000001 count=7
R350_PROBE write reg=0x21e0 value=0xfb24fb08 count=7
R350_PROBE write reg=0x4288 value=0x00000000 count=6
R350_PROBE write reg=0x43a8 value=0x2da49525 count=6
R350_PROBE write reg=0x48c0 value=0x00050a80 count=6
R350_PROBE write reg=0x46c0 value=0x1c000020 count=6
R350_PROBE write reg=0x47c0 value=0x01000020 count=6
R350_PROBE write reg=0x49c0 value=0x00040889 count=6
R350_PROBE write reg=0x4e4c value=0x0000000a count=128
R350_PROBE write reg=0x2140 value=0x00000102 count=7
R350_PROBE write reg=0x2150 value=0x26000001 count=8
R350_PROBE write reg=0x21e0 value=0xfb24fb08 count=8
R350_PROBE write reg=0x4288 value=0x00000000 count=7
R350_PROBE write reg=0x43a8 value=0x2da49525 count=7
R350_PROBE write reg=0x48c0 value=0x00050a80 count=7
R350_PROBE write reg=0x46c0 value=0x1c000020 count=7
R350_PROBE write reg=0x47c0 value=0x01000020 count=7
R350_PROBE write reg=0x49c0 value=0x00040889 count=7
R350_PROBE write reg=0x4290 value=0x00000000 count=3
R350_PROBE write reg=0x2140 value=0x00000002 count=8
R350_PROBE write reg=0x42b4 value=0x00000000 count=3
R350_PROBE write reg=0x4288 value=0x00000000 count=8
R350_PROBE write reg=0x428c value=0x00000001 count=3
R350_PROBE write reg=0x4234 value=0x00020006 count=7
R350_PROBE write reg=0x4214 value=0x00050005 count=3
R350_PROBE write reg=0x4238 value=0x00000000 count=7
R350_PROBE write reg=0x4260 value=0x00000000 count=3
R350_PROBE write reg=0x4264 value=0x00000000 count=3
R350_PROBE write reg=0x4268 value=0x3f800000 count=7
R350_PROBE write reg=0x401c value=0x00000000 count=8
R350_PROBE write reg=0x43e8 value=0x00ffffff count=16
R350_PROBE write reg=0x4e88 value=0x00000000 count=3
R350_PROBE write reg=0x4274 value=0x00000002 count=3
R350_PROBE write reg=0x42a0 value=0x00000000 count=3
R350_PROBE write reg=0x4294 value=0x00000000 count=6
R350_PROBE write reg=0x4298 value=0x00000000 count=6
R350_PROBE write reg=0x2184 value=0x00000005 count=8
R350_PROBE write reg=0x2094 value=0x00000000 count=16
R350_PROBE write reg=0x221c value=0x00000000 count=16
R350_PROBE write reg=0x2288 value=0x0000ffff count=3
R350_PROBE write reg=0x21dc value=0xaaaaaaaa count=3
R350_PROBE write reg=0x2134 value=0x00ffffff count=3
R350_PROBE write reg=0x2138 value=0x00000000 count=3
R350_PROBE write reg=0x1720 value=0x00008000 count=128
R350_PROBE write reg=0x43a8 value=0x2da49525 count=8
R350_PROBE write reg=0x1d98 value=0x44520000 count=7
R350_PROBE write reg=0x1d9c value=0x44520000 count=7
R350_PROBE write reg=0x1da0 value=0xc4034000 count=7
R350_PROBE write reg=0x1da4 value=0x44034000 count=7
R350_PROBE write reg=0x1da8 value=0x3f000000 count=7
R350_PROBE write reg=0x1dac value=0x3f000000 count=7
R350_PROBE write reg=0x2220 value=0x3f800000 count=7
R350_PROBE write reg=0x2224 value=0x3f800000 count=7
R350_PROBE write reg=0x2228 value=0x3f800000 count=7
R350_PROBE write reg=0x222c value=0x3f800000 count=7
R350_PROBE write reg=0x4230 value=0x01800006 count=6
R350_PROBE write reg=0x4e18 value=0x00000000 count=5
R350_PROBE write reg=0x4bd4 value=0x00000c00 count=16
R350_PROBE write reg=0x4bd8 value=0x00000000 count=3
R350_PROBE write reg=0x4bc8 value=0x00000000 count=6
R350_PROBE write reg=0x4bcc value=0x00000000 count=6
R350_PROBE write reg=0x4bd0 value=0x00000000 count=6
R350_PROBE write reg=0x427c value=0x00000000 count=3
R350_PROBE write reg=0x4280 value=0x00000000 count=3
R350_PROBE write reg=0x4e08 value=0x00000000 count=7
R350_PROBE write reg=0x4e10 value=0x00000000 count=7
R350_PROBE write reg=0x4f14 value=0x00000000 count=8
R350_PROBE write reg=0x42c0 value=0x4b7fffff count=7
R350_PROBE write reg=0x42c4 value=0x00000000 count=7
R350_PROBE write reg=0x4c10 value=0x00000000 count=3
R350_PROBE write reg=0x4c14 value=0x00000000 count=3
R350_PROBE write reg=0x4c18 value=0x00000000 count=3
R350_PROBE write reg=0x4c1c value=0x00000000 count=3
R350_PROBE write reg=0x4c20 value=0x00000000 count=3
R350_PROBE write reg=0x4c24 value=0x00000000 count=3
R350_PROBE write reg=0x4c28 value=0x00000000 count=3
R350_PROBE write reg=0x4c2c value=0x00000000 count=3
R350_PROBE write reg=0x4c30 value=0x00000000 count=3
R350_PROBE write reg=0x4c34 value=0x00000000 count=3
R350_PROBE write reg=0x4c38 value=0x00000000 count=3
R350_PROBE write reg=0x4c3c value=0x00000000 count=3
R350_PROBE write reg=0x4c40 value=0x00000000 count=3
R350_PROBE write reg=0x4c44 value=0x00000000 count=3
R350_PROBE write reg=0x4c48 value=0x00000000 count=3
R350_PROBE write reg=0x4c4c value=0x00000000 count=3
R350_PROBE write reg=0x4c50 value=0x00000000 count=3
R350_PROBE write reg=0x4c54 value=0x00000000 count=3
R350_PROBE write reg=0x4c58 value=0x00000000 count=3
R350_PROBE write reg=0x4c5c value=0x00000000 count=3
R350_PROBE write reg=0x4c60 value=0x00000000 count=3
R350_PROBE write reg=0x4c64 value=0x00000000 count=3
R350_PROBE write reg=0x4c68 value=0x00000000 count=3
R350_PROBE write reg=0x4c6c value=0x00000000 count=3
R350_PROBE write reg=0x4c70 value=0x00000000 count=3
R350_PROBE write reg=0x4c74 value=0x00000000 count=3
R350_PROBE write reg=0x4c78 value=0x00000000 count=3
R350_PROBE write reg=0x4c7c value=0x00000000 count=3
R350_PROBE write reg=0x4314 value=0x00d10040 count=8
R350_PROBE write reg=0x4318 value=0x00d10080 count=8
R350_PROBE write reg=0x431c value=0x00d100c0 count=8
R350_PROBE write reg=0x4320 value=0x00d10000 count=8
R350_PROBE write reg=0x4324 value=0x00d10000 count=8
R350_PROBE write reg=0x4328 value=0x00d10000 count=8
R350_PROBE write reg=0x432c value=0x00d10000 count=8
R350_PROBE write reg=0x48c0 value=0x00050a80 count=8
R350_PROBE write reg=0x48c4 value=0x00050a80 count=3
R350_PROBE write reg=0x48c8 value=0x40050200 count=3
R350_PROBE write reg=0x48cc value=0x00050a80 count=3
R350_PROBE write reg=0x48d0 value=0x40050200 count=2
R350_PROBE write reg=0x46c0 value=0x1c020800 count=8
R350_PROBE write reg=0x46c4 value=0x1c020800 count=3
R350_PROBE write reg=0x46c8 value=0x1c020040 count=3
R350_PROBE write reg=0x46cc value=0x1c020800 count=3
R350_PROBE write reg=0x46d0 value=0x1c020040 count=2
R350_PROBE write reg=0x49c0 value=0x00040889 count=8
R350_PROBE write reg=0x49c4 value=0x00040889 count=3
R350_PROBE write reg=0x49c8 value=0x40040509 count=3
R350_PROBE write reg=0x49cc value=0x00040889 count=3
R350_PROBE write reg=0x49d0 value=0x40040509 count=2
R350_PROBE write reg=0x47c0 value=0x01020800 count=8
R350_PROBE write reg=0x47c4 value=0x01020800 count=3
R350_PROBE write reg=0x47c8 value=0x01020800 count=3
R350_PROBE write reg=0x47cc value=0x01020800 count=3
R350_PROBE write reg=0x47d0 value=0x01020800 count=2
R350_PROBE write reg=0x4620 value=0x00018041 count=5
R350_PROBE write reg=0x4624 value=0x00018041 count=2
R350_PROBE write reg=0x22d0 value=0x08420c80 count=8
R350_PROBE write reg=0x22d4 value=0x00040080 count=8
R350_PROBE write reg=0x22d8 value=0x00000084 count=8
R350_PROBE write reg=0x22dc value=0x00000000 count=8
R350_PROBE write reg=0x2080 value=0x0030045a count=6
R350_PROBE write reg=0x4018 value=0x00000017 count=16
R350_PROBE write reg=0x4e2c value=0x00000000 count=7
R350_PROBE write reg=0x4e30 value=0x00000000 count=7
R350_PROBE write reg=0x4e34 value=0x00000000 count=7
R350_PROBE write reg=0x4e3c value=0x00000000 count=7
R350_PROBE write reg=0x4e40 value=0x00000000 count=7
R350_PROBE write reg=0x4e44 value=0x00000000 count=7
R350_PROBE write reg=0x4e54 value=0x00000001 count=7
R350_PROBE write reg=0x4e64 value=0x000006c0 count=7
R350_PROBE write reg=0x4f20 value=0x00000000 count=7
R350_PROBE write reg=0x4f24 value=0x00000000 count=7
R350_PROBE write reg=0x4f60 value=0x00000000 count=7
R350_PROBE write reg=0x4f10 value=0x00000000 count=7
R350_PROBE write reg=0x4f28 value=0x00000000 count=7
R350_PROBE write reg=0x4f30 value=0x00000000 count=7
R350_PROBE write reg=0x4f34 value=0x00000000 count=7
R350_PROBE write reg=0x4f44 value=0x00000000 count=7
R350_PROBE write reg=0x4f54 value=0x00000000 count=7
R350_PROBE write reg=0x20c8 value=0x00000000 count=3
R350_PROBE write reg=0x20cc value=0x00000000 count=3
R350_PROBE write reg=0x20d4 value=0x00000000 count=3
R350_PROBE write reg=0x20d8 value=0x00000000 count=3
R350_PROBE write reg=0x20e0 value=0x00000000 count=3
R350_PROBE write reg=0x20e4 value=0x00000000 count=3
R350_PROBE write reg=0x20ec value=0x00000000 count=3
R350_PROBE write reg=0x20f0 value=0x00000000 count=3
R350_PROBE write reg=0x20f8 value=0x00000000 count=3
R350_PROBE write reg=0x20fc value=0x00000000 count=3
R350_PROBE write reg=0x2104 value=0x00000000 count=3
R350_PROBE write reg=0x2108 value=0x00000000 count=3
R350_PROBE write reg=0x2110 value=0x00000000 count=3
R350_PROBE write reg=0x2114 value=0x00000000 count=3
R350_PROBE write reg=0x211c value=0x00000000 count=3
R350_PROBE write reg=0x2120 value=0x00000000 count=3
R350_PROBE write reg=0x4bc8 value=0x00000000 count=7
R350_PROBE write reg=0x4bcc value=0x00000000 count=7
R350_PROBE write reg=0x4bd0 value=0x00000000 count=7
R350_PROBE write reg=0x4294 value=0x00000000 count=7
R350_PROBE write reg=0x4298 value=0x00000000 count=7
R350_PROBE write reg=0x4e08 value=0x00000000 count=8
R350_PROBE write reg=0x4e10 value=0x00000000 count=8
R350_PROBE write reg=0x4f08 value=0x00ffff00 count=4
R350_PROBE write reg=0x4230 value=0x01800006 count=7
R350_PROBE write reg=0x4234 value=0x00020006 count=8
R350_PROBE write reg=0x4238 value=0x00000000 count=8
R350_PROBE write reg=0x4268 value=0x3f800000 count=8
R350_PROBE write reg=0x42c4 value=0x00000000 count=8
R350_PROBE write reg=0x42c0 value=0x4b7fffff count=8
R350_PROBE write reg=0x4e2c value=0x00000000 count=8
R350_PROBE write reg=0x4e30 value=0x00000000 count=8
R350_PROBE write reg=0x4e34 value=0x00000000 count=8
R350_PROBE write reg=0x4e3c value=0x00000000 count=8
R350_PROBE write reg=0x4e40 value=0x00000000 count=8
R350_PROBE write reg=0x4e44 value=0x00000000 count=8
R350_PROBE write reg=0x4e54 value=0x00000001 count=8
R350_PROBE write reg=0x4e64 value=0x000006c0 count=8
R350_PROBE write reg=0x4f20 value=0x00000000 count=8
R350_PROBE write reg=0x4f24 value=0x00000000 count=8
R350_PROBE write reg=0x4f60 value=0x00000000 count=8
R350_PROBE write reg=0x4f10 value=0x00000000 count=8
R350_PROBE write reg=0x4f28 value=0x00000000 count=8
R350_PROBE write reg=0x4f30 value=0x00000000 count=8
R350_PROBE write reg=0x4f34 value=0x00000000 count=8
R350_PROBE write reg=0x4f44 value=0x00000000 count=8
R350_PROBE write reg=0x4f54 value=0x00000000 count=8
R350_PROBE write reg=0x20b4 value=0x0000000c count=16
R350_PROBE write reg=0x4e28 value=0x006f6000 count=16
R350_PROBE write reg=0x4e38 value=0x2ed146c0 count=16
R350_PROBE write reg=0x4e00 value=0x00000000 count=16
R350_PROBE write reg=0x4f1c value=0x00000000 count=16
R350_PROBE write reg=0x43a4 value=0x00000000 count=16
R350_PROBE write reg=0x43d0 value=0x0000aaaa count=16
R350_PROBE write reg=0x16ec value=0x00000000 count=16
R350_PROBE write reg=0x16f0 value=0x041a0690 count=16
